Creation of file capture
Number of arguments: 2 arguments.
File transfered: flaggy.xz
date Thu Aug 27 04:32:07 pm 2017
base hex  timestamps absolute
no internal events logged
// version 7.6.0
    0.789988 2  752             Rx   d 3 02 3E 00
    1.297821 2  652             Tx   d 3 02 7E 00
    1.658336 2  752             Rx   d 4 03 22 F0 80 
    2.338074 2  652             Tx   d 8 10 19 62 F0 80 98 09 15 
    2.648088 2  752             Rx   d 3 30 00 00 
    3.387659 2  652             Tx   d 8 21 48 80 00 13 98 19 85 
    3.624818 2  652             Tx   d 8 22 14 80 02 22 FF FF 00 
    4.423183 2  652             Tx   d 6 23 01 FF FF FF FF 
    5.026666 2  752             Rx   d 6 05 34 82 11 00 00 
    5.397011 2  652             Tx   d 4 03 74 10 00 
    5.726202 2  752             Rx   d 8 10 F5 36 01 00 00 00 00
    6.697293 2  652             Tx   d 3 30 00 00
    7.162476 2  752             Rx   d 8 21 FD 37 7A 58 5A 00 00 
    7.204547 2  752             Rx   d 8 22 04 E6 D6 B4 46 02 00 
    7.915807 2  752             Rx   d 8 23 21 01 16 00 00 00 74 
    8.398357 2  752             Rx   d 8 24 2F E5 A3 E2 9D 2A EF 
    8.874932 2  752             Rx   d 8 25 FE 5D 00 3F 91 45 84 
    9.435907 2  752             Rx   d 8 26 68 34 8A 09 09 9E 4B 
    9.622400 2  752             Rx   d 8 27 B1 3A D9 62 96 91 93 
    9.860553 2  752             Rx   d 8 28 C5 77 52 DA 9B 65 1F 
   10.359458 2  752             Rx   d 8 29 5A 40 A3 D7 CD 13 12 
   10.793930 2  752             Rx   d 8 2A 95 4D 5C FA DA 1D 03 
   11.460061 2  752             Rx   d 8 2B 1C 87 53 1D 22 93 C1 
   11.836909 2  752             Rx   d 8 2C FF 91 59 5B F5 07 E9 
   12.166156 2  752             Rx   d 8 2D DF 52 20 25 A2 90 62 
   13.024470 2  752             Rx   d 8 2E A3 2E B4 3D DE A5 E6 
   13.513767 2  752             Rx   d 8 20 18 90 43 15 4E 0F 09 
   14.204638 2  752             Rx   d 8 21 9A 3C 01 93 9C D6 74 
   14.357224 2  752             Rx   d 8 22 BE A1 55 36 C4 E1 29 
   14.544736 2  752             Rx   d 8 23 82 C7 50 97 EC 2C BC 
   15.396855 2  752             Rx   d 8 24 15 BD 6F 9A 52 12 F6 
   15.590251 2  752             Rx   d 8 25 7F E5 AB 9D 9A A4 06 
   16.351829 2  752             Rx   d 8 26 9D 1F 66 18 F2 45 5F 
   16.516204 2  752             Rx   d 8 27 46 3E F5 37 FD 54 07 
   16.698666 2  752             Rx   d 8 28 AB C9 FE 4E 45 74 CE 
   17.316397 2  752             Rx   d 8 29 87 15 BE 42 9F D1 C5 
   17.349382 2  752             Rx   d 8 2A 74 78 90 A1 AA 7C A0 
   18.252991 2  752             Rx   d 8 2B 1C FE D6 41 9C 2A 67 
   18.924874 2  752             Rx   d 8 2C D6 66 20 7A 54 D0 A8 
   19.635137 2  752             Rx   d 8 2D 98 DD C7 64 67 13 14 
   20.131319 2  752             Rx   d 8 2E F6 17 B7 8D D9 1D 7D 
   21.097441 2  752             Rx   d 8 20 CA AF 2D 1F C4 46 13 
   21.101433 2  752             Rx   d 8 21 EB E1 42 2B 84 EC 41 
   21.630096 2  752             Rx   d 8 22 05 CB B1 E5 2F DA DC 
   21.814434 2  752             Rx   d 8 23 A4 2E D7 CC 48 B1 08 
   22.369894 2  752             Rx   d 8 24 04 B6 AD 47 91 45 E5 
   23.209265 2  752             Rx   d 8 25 A6 8D F2 53 9A 17 FE 
   23.324250 2  652             Tx   d 4 03 76 01 02
   23.341243 2  752             Rx   d 8 10 F5 36 02 00 00 00 00
   23.903599 2  652             Tx   d 3 30 00 00
   24.049685 2  752             Rx   d 8 21 A0 C2 9A 47 5B 3E 3E 
   24.156134 2  752             Rx   d 8 22 1A F6 E0 65 AA 64 9F 
   24.746830 2  752             Rx   d 8 23 D4 BE 09 89 F6 A1 1B 
   25.657506 2  752             Rx   d 8 24 4D 88 C0 93 2D 32 5E 
   26.465698 2  752             Rx   d 8 25 BD E1 AC 69 5A 14 D8 
   27.280665 2  752             Rx   d 8 26 EF 3A 76 98 B4 2C B5 
   28.129388 2  752             Rx   d 8 27 39 C0 CA E7 62 EA D3 
   28.651032 2  752             Rx   d 8 28 A8 E1 29 06 D3 7E 10 
   29.409944 2  752             Rx   d 8 29 2F 09 7B F3 F4 78 2C 
   29.924810 2  752             Rx   d 8 2A B0 72 00 64 86 38 29 
   30.913635 2  752             Rx   d 8 2B B3 F1 3D 08 80 45 86 
   31.151417 2  752             Rx   d 8 2C 80 59 FA 21 1A 5C B2 
   31.746067 2  752             Rx   d 8 2D 77 41 F0 0A 3A 10 2D 
   32.206779 2  752             Rx   d 8 2E B2 B8 8A 9C A8 5B 0E 
   32.986266 2  752             Rx   d 8 20 57 67 B1 81 D5 EE 4D 
   33.847192 2  752             Rx   d 8 21 7C 36 FA 80 C7 45 7F 
   33.953672 2  752             Rx   d 8 22 91 35 56 06 C6 3C 62 
   34.021172 2  752             Rx   d 8 23 63 A5 AB 88 87 7D 76 
   34.392304 2  752             Rx   d 8 24 C5 8D 37 B1 AA A0 20 
   35.103104 2  752             Rx   d 8 25 77 76 9A 48 7B D5 50 
   36.010129 2  752             Rx   d 8 26 45 0C 9B D6 72 DC 22 
   36.546005 2  752             Rx   d 8 27 3F D8 AB 4A BF C8 01 
   36.925171 2  752             Rx   d 8 28 F0 8E 0F 7C 0B FA C1 
   37.737059 2  752             Rx   d 8 29 36 40 5F 7A 20 85 8E 
   38.313826 2  752             Rx   d 8 2A EE 03 CC 14 FA 3A 3F 
   39.285215 2  752             Rx   d 8 2B D1 3B F5 1A BC 2C 47 
   39.311269 2  752             Rx   d 8 2C F1 08 8E 0D 83 0F C7 
   39.541684 2  752             Rx   d 8 2D C6 26 BE 41 CF 07 A8 
   39.809309 2  752             Rx   d 8 2E 18 F7 70 2F 56 C2 67 
   39.823196 2  752             Rx   d 8 20 BF 76 D5 76 83 35 5D 
   40.170427 2  752             Rx   d 8 21 3C 17 52 CB DB 63 E2 
   40.848763 2  752             Rx   d 8 22 19 C0 A0 DB 10 62 DF 
   41.544862 2  752             Rx   d 8 23 93 D7 46 54 C2 32 7A 
   42.443505 2  752             Rx   d 8 24 67 E0 42 D8 93 0A 78 
   42.882603 2  752             Rx   d 8 25 25 A0 74 D8 1D F0 91 
   43.047157 2  652             Tx   d 4 03 76 02 02
   43.578721 2  752             Rx   d 8 10 F5 36 03 00 00 00 00
   44.394412 2  652             Tx   d 3 30 00 00
   44.538227 2  752             Rx   d 8 21 F1 AF 0E 34 C1 3A F9 
   44.585509 2  752             Rx   d 8 22 C7 AA 93 D5 FB 27 43 
   44.616045 2  752             Rx   d 8 23 9C 25 D0 82 C8 FB 16 
   45.329882 2  752             Rx   d 8 24 95 10 80 9C 98 1F F2 
   45.362182 2  752             Rx   d 8 25 C8 8D 30 56 BF 8E 8B 
   46.229040 2  752             Rx   d 8 26 99 05 01 5F 3C A8 C5 
   46.333124 2  752             Rx   d 8 27 52 AA 39 5F 91 FE 73 
   46.884183 2  752             Rx   d 8 28 98 2A 70 E7 EE D5 5E 
   47.726749 2  752             Rx   d 8 29 CE 5B 1A 96 8F A7 87 
   48.349650 2  752             Rx   d 8 2A 41 73 44 05 62 95 AF 
   48.612496 2  752             Rx   d 8 2B 4A D0 4B FC 38 E4 1F 
   49.492977 2  752             Rx   d 8 2C A3 23 17 E9 C0 CD D1 
   50.291815 2  752             Rx   d 8 2D 95 8B 1D 10 F8 9C 51 
   50.624128 2  752             Rx   d 8 2E 69 C6 6F 15 84 C4 0A 
   50.883347 2  752             Rx   d 8 20 B9 A8 2F CE 43 DD AE 
   51.277538 2  752             Rx   d 8 21 E6 69 B8 D1 F1 07 B6 
   51.624146 2  752             Rx   d 8 22 E7 55 F2 F4 E7 19 02 
   52.017738 2  752             Rx   d 8 23 BB 7E A6 AD C9 B5 8C 
   52.542687 2  752             Rx   d 8 24 CD BB 96 02 C4 42 70 
   52.729471 2  752             Rx   d 8 25 2D 54 1C C2 06 56 07 
   53.573237 2  752             Rx   d 8 26 F2 32 A5 3F D5 59 5C 
   54.514974 2  752             Rx   d 8 27 A4 DF D6 07 7A C0 27 
   55.461949 2  752             Rx   d 8 28 C3 DF F3 7A 59 67 50 
   55.523439 2  752             Rx   d 8 29 A7 9D 52 27 7A 63 A4 
   56.091143 2  752             Rx   d 8 2A 96 DC 1E A4 8C 1D B6 
   56.352867 2  752             Rx   d 8 2B 28 63 4E 18 E5 4A 7A 
   56.995359 2  752             Rx   d 8 2C 7A 55 83 1C F3 D5 CE 
   57.689505 2  752             Rx   d 8 2D 59 4A F9 1F 65 4E 7F 
   58.187621 2  752             Rx   d 8 2E 58 89 C1 F1 E5 A6 74 
   58.334512 2  752             Rx   d 8 20 86 9C 4E 47 CA B0 2D 
   58.506485 2  752             Rx   d 8 21 66 E8 B5 00 F6 1D 9A 
   59.262181 2  752             Rx   d 8 22 0C 72 14 56 71 C9 00 
   59.270968 2  752             Rx   d 8 23 3F 33 58 95 66 3B 34 
   60.214570 2  752             Rx   d 8 24 F5 C1 05 96 71 5C C7 
   60.962655 2  752             Rx   d 8 25 17 3D 70 D1 23 4B 17 
   61.381921 2  652             Tx   d 4 03 76 03 02
   62.060695 2  752             Rx   d 8 10 F5 36 04 00 00 00 00
   62.463576 2  652             Tx   d 3 30 00 00
   62.464538 2  752             Rx   d 8 21 97 B1 C2 FB CE A6 8F 
   62.769748 2  752             Rx   d 8 22 60 DE 5B 01 8A DF DC 
   63.745339 2  752             Rx   d 8 23 A4 C4 E6 D5 3B 15 33 
   64.304940 2  752             Rx   d 8 24 C3 58 2A 65 1F 40 D7 
   64.445158 2  752             Rx   d 8 25 BE 14 A8 C2 D9 C8 E8 
   64.937841 2  752             Rx   d 8 26 4C 9A 0D 55 26 6E E5 
   65.283744 2  752             Rx   d 8 27 1F 84 09 62 5A 78 C6 
   66.007436 2  752             Rx   d 8 28 8C 1A EF E6 FC 57 07 
   66.849429 2  752             Rx   d 8 29 67 67 1B D4 8B F3 3E 
   67.448855 2  752             Rx   d 8 2A 97 E1 A7 D9 BD 2E E9 
   67.588786 2  752             Rx   d 8 2B C5 6A 52 7A E6 BA 29 
   67.888223 2  752             Rx   d 8 2C 4D 37 11 12 02 07 7A 
   67.946968 2  752             Rx   d 8 2D 04 06 33 D1 2F 77 D9 
   68.790223 2  752             Rx   d 8 2E 2F 41 C9 B6 D1 BD AB 
   69.474318 2  752             Rx   d 8 20 BF C0 B4 CE 07 04 F7 
   69.809649 2  752             Rx   d 8 21 A8 DA CB 53 5B 2D 19 
   70.232707 2  752             Rx   d 8 22 48 0B C8 A6 4D D7 AD 
   70.479807 2  752             Rx   d 8 23 26 A3 FF C7 F6 D2 E7 
   70.953760 2  752             Rx   d 8 24 A3 C0 E4 8D 81 6A 73 
   71.742166 2  752             Rx   d 8 25 B5 E6 FC C4 30 81 2A 
   71.908961 2  752             Rx   d 8 26 F2 A2 BC E3 7A EC 77 
   72.536423 2  752             Rx   d 8 27 3E 0A 2B 6D 1A 52 89 
   73.277241 2  752             Rx   d 8 28 81 A0 4F B6 F0 30 B1 
   74.174714 2  752             Rx   d 8 29 AB 96 85 BD 6C BD ED 
   74.422833 2  752             Rx   d 8 2A 5A D2 4D CB 80 D3 F5 
   74.503848 2  752             Rx   d 8 2B 0F A7 01 9B 71 FE 90 
   75.173527 2  752             Rx   d 8 2C 6F A7 BE 0E B8 77 37 
   75.976598 2  752             Rx   d 8 2D 43 AD AF 2D CD 27 24 
   76.546875 2  752             Rx   d 8 2E AE 0C 39 23 3B 14 34 
   77.314155 2  752             Rx   d 8 20 F3 66 1D 3D F7 F5 9C 
   77.729132 2  752             Rx   d 8 21 84 F0 02 2B 66 10 05 
   77.917915 2  752             Rx   d 8 22 A4 BE 38 89 FE 05 4F 
   78.779200 2  752             Rx   d 8 23 03 20 00 C7 B7 E6 C1 
   79.385755 2  752             Rx   d 8 24 7F 5E 60 8C 1A 4F 27 
   79.522243 2  752             Rx   d 8 25 CB D7 E7 AB 4A EC 9F 
   80.197410 2  652             Tx   d 4 03 76 04 02
   80.309535 2  752             Rx   d 8 10 F5 36 05 00 00 00 00
   80.697501 2  652             Tx   d 3 30 00 00
   80.699308 2  752             Rx   d 8 21 55 AE 4E A3 2C 63 2B 
   80.867081 2  752             Rx   d 8 22 7F F9 DF F3 9C 1F 7B 
   81.599904 2  752             Rx   d 8 23 1E 2B 48 6F FF 50 A9 
   81.801299 2  752             Rx   d 8 24 7C 0A 80 0E EA 48 FD 
   82.246582 2  752             Rx   d 8 25 29 92 A1 C7 3A 20 06 
   82.343306 2  752             Rx   d 8 26 B6 65 4F 7D B3 ED 87 
   82.766184 2  752             Rx   d 8 27 21 85 27 6B A8 BC BB 
   83.652678 2  752             Rx   d 8 28 BF 08 E5 37 40 80 59 
   83.962066 2  752             Rx   d 8 29 8A 13 EC 6C 19 BC B7 
   84.749456 2  752             Rx   d 8 2A 6E FF 09 5A 2E 80 CF 
   85.448305 2  752             Rx   d 8 2B D6 1C 10 A1 FB 0E AC 
   86.324644 2  752             Rx   d 8 2C 8C A9 80 97 D7 79 14 
   86.931377 2  752             Rx   d 8 2D 2D 64 CE B7 D5 38 C8 
   87.145144 2  752             Rx   d 8 2E E2 5A FC 7A 5C 8A 7E 
   87.841397 2  752             Rx   d 8 20 7A 63 7A CB 69 67 54 
   88.823484 2  752             Rx   d 8 21 9C 82 4C D2 A0 DA 96 
   88.998819 2  752             Rx   d 8 22 B7 8E E8 A7 0F 1F A8 
   89.550941 2  752             Rx   d 8 23 7C 4F 2C F0 B3 9A 41 
   89.773494 2  752             Rx   d 8 24 6A 42 C0 81 C5 89 4E 
   89.809492 2  752             Rx   d 8 25 7A 75 FD AB 61 12 41 
   90.550037 2  752             Rx   d 8 26 C1 DF 4A 71 9F 2F 98 
   90.873457 2  752             Rx   d 8 27 5E 95 00 1B 6C 39 7B 
   91.392823 2  752             Rx   d 8 28 EA 34 18 74 D1 34 A7 
   91.939516 2  752             Rx   d 8 29 1C 90 A2 5F 80 EE E9 
   92.776924 2  752             Rx   d 8 2A 48 79 59 9B 7F 7E B7 
   93.576888 2  752             Rx   d 8 2B 87 98 91 81 41 18 AD 
   93.979097 2  752             Rx   d 8 2C B8 FC 78 9F DA 91 B0 
   94.030983 2  752             Rx   d 8 2D AA 2E 71 EA 7F C2 82 
   94.519644 2  752             Rx   d 8 2E FB 53 D5 97 94 14 C8 
   95.168069 2  752             Rx   d 8 20 7D A1 BD 62 FC 88 F9 
   95.849932 2  752             Rx   d 8 21 FF 9F 72 38 DA BB 58 
   96.010005 2  752             Rx   d 8 22 8A 7D 1C 3F 2E 12 A9 
   96.836909 2  752             Rx   d 8 23 56 F0 83 31 8D 9F 3D 
   96.959111 2  752             Rx   d 8 24 26 D5 8F 44 DA 93 79 
   97.029680 2  752             Rx   d 8 25 04 B8 6A CC A1 97 3F 
   97.381794 2  652             Tx   d 4 03 76 05 02
   98.348829 2  752             Rx   d 8 10 F5 36 06 00 00 00 00
   98.790500 2  652             Tx   d 3 30 00 00
   98.799903 2  752             Rx   d 8 21 6A 17 E4 F6 82 B0 77 
   98.996966 2  752             Rx   d 8 22 D9 A6 AE 57 C3 88 1D 
   99.916065 2  752             Rx   d 8 23 A6 C8 0C 9C CA 73 41 
  100.690646 2  752             Rx   d 8 24 78 E3 A4 E9 D7 2D 17 
  101.019041 2  752             Rx   d 8 25 77 E2 BC 10 B0 0E 11 
  101.760940 2  752             Rx   d 8 26 9E B6 4A 14 86 00 63 
  102.576264 2  752             Rx   d 8 27 D8 B9 2E A9 DA 1C 4A 
  103.532482 2  752             Rx   d 8 28 15 CD 81 10 63 23 CF 
  104.474222 2  752             Rx   d 8 29 57 04 43 20 C0 79 2E 
  104.587618 2  752             Rx   d 8 2A 93 AE A9 E8 1D B0 00 
  104.894379 2  752             Rx   d 8 2B 2B 8A D6 AF 01 87 71 
  105.594717 2  752             Rx   d 8 2C D4 2A F0 86 88 3A 4D 
  105.675875 2  752             Rx   d 8 2D 95 E1 B6 BC 2C 0B FF 
  106.518066 2  752             Rx   d 8 2E 08 23 03 47 D8 78 47 
  107.365937 2  752             Rx   d 8 20 95 37 27 30 7A C0 56 
  107.469629 2  752             Rx   d 8 21 13 01 60 8D ED 35 3E 
  107.899206 2  752             Rx   d 8 22 87 84 53 03 D2 E3 1E 
  108.763518 2  752             Rx   d 8 23 B7 CF BC FD 31 F0 89 
  109.006847 2  752             Rx   d 8 24 A9 68 97 80 F0 E4 88 
  109.289079 2  752             Rx   d 8 25 4A 51 67 2A 7E 78 60 
  110.281188 2  752             Rx   d 8 26 5E 48 95 5E 80 D7 62 
  111.031123 2  752             Rx   d 8 27 27 D1 38 FE F8 79 95 
  111.266485 2  752             Rx   d 8 28 27 FE E3 49 ED 3D 9C 
  111.665092 2  752             Rx   d 8 29 87 FD 33 EB 1D E7 F3 
  112.654487 2  752             Rx   d 8 2A 37 39 83 5B FC 3D BE 
  113.511353 2  752             Rx   d 8 2B 7B 8D FA E1 E6 53 2F 
  114.297502 2  752             Rx   d 8 2C CA EC CC 95 97 4F C4 
  114.547506 2  752             Rx   d 8 2D C5 16 C4 0A F6 6A 84 
  115.544889 2  752             Rx   d 8 2E F1 A2 67 EF 89 91 44 
  116.094378 2  752             Rx   d 8 20 79 56 EB E5 BF C3 80 
  116.161859 2  752             Rx   d 8 21 47 DA D0 95 12 BE 0E 
  117.072611 2  752             Rx   d 8 22 47 38 06 AA 7F 4E 58 
  117.777524 2  752             Rx   d 8 23 CA 73 71 46 33 3C C3 
  118.574528 2  752             Rx   d 8 24 0C 8A 83 F6 84 17 A2 
  118.855367 2  752             Rx   d 8 25 66 C4 EE 47 15 57 7C 
  119.062802 2  652             Tx   d 4 03 76 06 02
  119.766978 2  752             Rx   d 8 10 F5 36 07 00 00 00 00
  119.789255 2  652             Tx   d 3 30 00 00
  120.652251 2  752             Rx   d 8 21 AF 45 D3 B9 EC A7 51 
  121.302829 2  752             Rx   d 8 22 B4 C6 60 CA 6B 7D BA 
  121.592574 2  752             Rx   d 8 23 0A B0 7B EC 1F 6B 7A 
  122.408478 2  752             Rx   d 8 24 E5 DA 5A 3E 28 8E BD 
  122.568222 2  752             Rx   d 8 25 AE 4A E1 D4 C6 31 15 
  122.722115 2  752             Rx   d 8 26 F1 59 BA E0 0A 71 D0 
  123.425404 2  752             Rx   d 8 27 8E F9 B2 D6 73 91 F6 
  124.246767 2  752             Rx   d 8 28 E3 A6 4E 00 6D E8 6D 
  124.391918 2  752             Rx   d 8 29 61 AB A7 2A 98 FC 98 
  125.020876 2  752             Rx   d 8 2A 04 C8 6E C8 48 3B 4D 
  125.214744 2  752             Rx   d 8 2B 76 0D 0B EB 3D BE 8F 
  125.467340 2  752             Rx   d 8 2C 01 48 6C 92 CB 95 07 
  125.821444 2  752             Rx   d 8 2D E9 58 43 3E 73 81 77 
  126.021565 2  752             Rx   d 8 2E 6A 6D 74 D8 D7 88 F7 
  126.889276 2  752             Rx   d 8 20 CA E4 E0 AE 5F 6C 19 
  127.410206 2  752             Rx   d 8 21 F5 FD 17 FE F5 C5 DD 
  127.751476 2  752             Rx   d 8 22 05 B4 05 37 25 39 F8 
  128.303744 2  752             Rx   d 8 23 C3 CA FC 28 9D 5C 52 
  128.804328 2  752             Rx   d 8 24 9F B1 9E D9 83 D9 C0 
  128.993391 2  752             Rx   d 8 25 13 2B 93 24 33 5A AE 
  129.919412 2  752             Rx   d 8 26 78 C4 A5 C8 76 61 70 
  130.739598 2  752             Rx   d 8 27 5E B2 DD C5 20 64 99 
  131.273962 2  752             Rx   d 8 28 BC 37 F3 1A 0C F3 81 
  131.619709 2  752             Rx   d 8 29 F6 15 38 7D 00 B3 1F 
  132.054144 2  752             Rx   d 8 2A F3 4F 1F F9 96 BA 74 
  132.683801 2  752             Rx   d 8 2B B5 F0 87 DA AE 91 FA 
  132.934970 2  752             Rx   d 8 2C 6B 0A 35 03 84 DA 21 
  133.579294 2  752             Rx   d 8 2D 48 1A C5 6E D9 33 7D 
  134.189954 2  752             Rx   d 8 2E 92 05 94 61 07 05 BB 
  134.711530 2  752             Rx   d 8 20 4C 89 4B 23 2D 02 1C 
  135.122587 2  752             Rx   d 8 21 3A E0 BA 9D 0E C7 F5 
  135.608824 2  752             Rx   d 8 22 3A DD E9 FA 3B E7 16 
  135.845047 2  752             Rx   d 8 23 E8 18 1D D1 A5 AD D5 
  136.483038 2  752             Rx   d 8 24 45 0B 7D 89 6E FE 2D 
  136.859019 2  752             Rx   d 8 25 95 70 B2 68 EA 17 03 
  137.002187 2  652             Tx   d 4 03 76 07 02
  137.934499 2  752             Rx   d 8 10 F5 36 08 00 00 00 00
  138.891127 2  652             Tx   d 3 30 00 00
  139.817559 2  752             Rx   d 8 21 E0 45 3D B0 FE 36 AF 
  140.059609 2  752             Rx   d 8 22 87 4A 81 4D C6 93 D5 
  140.733281 2  752             Rx   d 8 23 E8 BF 23 51 19 4C CF 
  140.796622 2  752             Rx   d 8 24 CC 4E D3 4C 85 56 B1 
  141.787274 2  752             Rx   d 8 25 23 C8 FC 38 77 F4 8B 
  142.611096 2  752             Rx   d 8 26 18 30 F7 44 AD 86 83 
  143.508181 2  752             Rx   d 8 27 27 B7 52 56 B0 6C C2 
  144.090420 2  752             Rx   d 8 28 7D D9 9C EF 8B 0F 3B 
  144.810969 2  752             Rx   d 8 29 9F 5C FC 2C 20 1D 75 
  145.668676 2  752             Rx   d 8 2A A2 C2 8B D0 52 63 77 
  145.997849 2  752             Rx   d 8 2B A2 F1 CE 74 A8 6F DE 
  146.291235 2  752             Rx   d 8 2C 24 A9 3B A3 ED 0E 0C 
  147.171337 2  752             Rx   d 8 2D 09 10 6F BF 90 E5 61 
  147.997846 2  752             Rx   d 8 2E 88 C2 D7 72 96 3B CB 
  148.991030 2  752             Rx   d 8 20 71 20 93 9F 86 9B 3B 
  149.789761 2  752             Rx   d 8 21 CC 35 2D 40 E2 AE BE 
  150.093815 2  752             Rx   d 8 22 D7 19 E7 A0 BD 1E 0F 
  150.776445 2  752             Rx   d 8 23 68 72 54 D1 F6 3F 08 
  150.855896 2  752             Rx   d 8 24 45 2C C7 17 86 5E 84 
  151.352139 2  752             Rx   d 8 25 87 BC AB 4F B5 AB 62 
  151.413947 2  752             Rx   d 8 26 F7 E6 B4 60 A3 83 A7 
  151.891123 2  752             Rx   d 8 27 79 25 AD 06 72 54 40 
  152.725013 2  752             Rx   d 8 28 CE CF 1D 66 9E 9C 13 
  153.435213 2  752             Rx   d 8 29 70 0C A6 E6 7B 2C F1 
  153.735095 2  752             Rx   d 8 2A FE 33 46 0E 2A 9B D1 
  154.311343 2  752             Rx   d 8 2B 49 39 8F E4 A4 C4 BF 
  154.338560 2  752             Rx   d 8 2C 42 68 08 4A B0 99 CE 
  154.639333 2  752             Rx   d 8 2D 67 7D 7E 83 7F 6F 36 
  155.302999 2  752             Rx   d 8 2E D2 29 80 17 FE 80 33 
  155.339557 2  752             Rx   d 8 20 A5 D5 B8 37 19 07 2C 
  155.369345 2  752             Rx   d 8 21 9B 48 F3 DB 3E 4D A0 
  155.573472 2  752             Rx   d 8 22 EB 76 09 59 EA 58 F7 
  156.149528 2  752             Rx   d 8 23 2A 68 29 31 AC 87 BF 
  156.410929 2  752             Rx   d 8 24 32 66 E2 CC 8D E5 51 
  157.270717 2  752             Rx   d 8 25 89 43 A2 7F 12 8B 2F 
  157.948750 2  652             Tx   d 4 03 76 08 02
  158.047462 2  752             Rx   d 8 10 F5 36 09 00 00 00 00
  158.128651 2  652             Tx   d 3 30 00 00
  158.973365 2  752             Rx   d 8 21 4E 1C 1E 8B B9 A3 25 
  159.679428 2  752             Rx   d 8 22 61 6F AD 27 FE 65 8E 
  160.219942 2  752             Rx   d 8 23 BF 99 A0 B7 7A 20 96 
  161.043488 2  752             Rx   d 8 24 E0 C7 EC 35 5F 01 EF 
  161.220860 2  752             Rx   d 8 25 3A D0 3F 0B B4 F9 A1 
  161.690253 2  752             Rx   d 8 26 50 7B E5 AF 80 84 93 
  162.292767 2  752             Rx   d 8 27 8E F6 95 42 CA 04 7A 
  162.519505 2  752             Rx   d 8 28 B5 E6 C5 CD 70 9A 43 
  163.203595 2  752             Rx   d 8 29 2C 96 A6 EB 0D F7 A4 
  163.809781 2  752             Rx   d 8 2A 56 8B EF 5C 83 1B 1D 
  164.678935 2  752             Rx   d 8 2B DB 6E A9 21 6F 3A 79 
  164.768989 2  752             Rx   d 8 2C 1D 15 7D 28 9F CE EC 
  165.210140 2  752             Rx   d 8 2D 2B 23 BF EA DF 74 AF 
  165.717616 2  752             Rx   d 8 2E D6 91 97 9C 44 07 B6 
  166.281685 2  752             Rx   d 8 20 C2 E4 54 3B DF 1B 5F 
  166.834659 2  752             Rx   d 8 21 7E F5 81 12 79 A1 03 
  167.677635 2  752             Rx   d 8 22 C7 66 DD 86 D9 C0 6B 
  168.320923 2  752             Rx   d 8 23 E0 FE F1 50 BC A7 05 
  168.486581 2  752             Rx   d 8 24 0E 30 D8 50 62 9B C5 
  168.573082 2  752             Rx   d 8 25 7E CF C7 D0 AA 78 EA 
  169.502734 2  752             Rx   d 8 26 B5 00 79 A1 30 07 F3 
  169.631167 2  752             Rx   d 8 27 BB 6D 96 B0 1B C2 CA 
  169.891677 2  752             Rx   d 8 28 9D 9D 23 09 29 AA CC 
  170.605835 2  752             Rx   d 8 29 2B 1D 50 12 32 00 28 
  170.681688 2  752             Rx   d 8 2A 45 DC 26 A3 CA CA 9B 
  171.118074 2  752             Rx   d 8 2B C8 CD 2D 08 8A B8 DD 
  171.489168 2  752             Rx   d 8 2C 9F 62 57 4B 98 73 7A 
  172.082498 2  752             Rx   d 8 2D A7 83 80 F8 F1 09 2D 
  172.925628 2  752             Rx   d 8 2E 84 C1 A8 F2 C9 94 8A 
  173.719174 2  752             Rx   d 8 20 A7 29 E2 02 94 2A 87 
  174.662298 2  752             Rx   d 8 21 0B ED 7B 74 81 EB 8C 
  175.194507 2  752             Rx   d 8 22 4F 10 B1 8F 0E 45 76 
  175.469260 2  752             Rx   d 8 23 3D F0 2B 6C CA 39 C0 
  176.017712 2  752             Rx   d 8 24 C2 ED A9 82 9F 40 35 
  176.938706 2  752             Rx   d 8 25 BF 6F 4B C2 9C 90 93 
  177.244502 2  652             Tx   d 4 03 76 09 02
  177.705563 2  752             Rx   d 8 10 F5 36 0A 00 00 00 00
  178.051931 2  652             Tx   d 3 30 00 00
  179.044503 2  752             Rx   d 8 21 27 25 19 74 4D 7A C4 
  179.768997 2  752             Rx   d 8 22 0E BB BA 1E 14 64 3D 
  180.630121 2  752             Rx   d 8 23 D5 79 1F 87 DA 8C C4 
  180.847642 2  752             Rx   d 8 24 9C AF F6 B1 B6 1C 59 
  181.019477 2  752             Rx   d 8 25 8B 71 E3 97 85 4E 85 
  181.311934 2  752             Rx   d 8 26 30 07 37 6B 0D 2C 26 
  181.747184 2  752             Rx   d 8 27 DF 4E A7 DF D6 42 EC 
  181.848507 2  752             Rx   d 8 28 E6 D5 39 AE 8C 33 45 
  182.476157 2  752             Rx   d 8 29 D1 BC A5 46 89 46 DF 
  182.918020 2  752             Rx   d 8 2A F8 64 9E 9D 30 29 5F 
  183.264947 2  752             Rx   d 8 2B 95 EA 4E 96 6B 50 F9 
  184.168078 2  752             Rx   d 8 2C AA 6D 93 E4 48 D6 6E 
  184.701502 2  752             Rx   d 8 2D 87 79 A0 EF 7F 42 43 
  185.563600 2  752             Rx   d 8 2E 98 5F 6C D9 ED CC DE 
  186.169314 2  752             Rx   d 8 20 16 E7 B9 C0 50 25 8B 
  186.761653 2  752             Rx   d 8 21 EA 66 D2 D0 AF A8 FD 
  187.262017 2  752             Rx   d 8 22 C8 4B D9 48 DD 6D 5D 
  187.555788 2  752             Rx   d 8 23 16 12 0F 98 E5 2B 15 
  188.112660 2  752             Rx   d 8 24 DC E4 91 8A 21 F6 43 
  188.264288 2  752             Rx   d 8 25 9D C5 D4 43 25 A7 43 
  188.509992 2  752             Rx   d 8 26 00 74 07 D7 60 56 1C 
  189.247424 2  752             Rx   d 8 27 15 82 5D 69 83 F4 E8 
  189.858555 2  752             Rx   d 8 28 07 CA 38 46 59 D8 80 
  190.017409 2  752             Rx   d 8 29 0A BD AA FA 30 2A 41 
  190.032754 2  752             Rx   d 8 2A 01 0E F5 01 5B 36 B8 
  190.603942 2  752             Rx   d 8 2B B1 7A F8 D9 29 EC AC 
  191.324051 2  752             Rx   d 8 2C 58 50 0E C5 44 0B C5 
  191.819297 2  752             Rx   d 8 2D E3 52 AA 36 13 99 58 
  192.554932 2  752             Rx   d 8 2E 78 42 FA C7 1A EA 5B 
  193.497158 2  752             Rx   d 8 20 B7 4F 2B 4D 06 B4 74 
  194.008798 2  752             Rx   d 8 21 80 4B F4 19 0F F6 88 
  194.420621 2  752             Rx   d 8 22 CE DD BB 3F B8 BF 37 
  195.319870 2  752             Rx   d 8 23 61 25 64 50 46 43 5C 
  195.623801 2  752             Rx   d 8 24 E3 02 76 65 E2 4C F0 
  195.801545 2  752             Rx   d 8 25 A9 AE E7 F3 03 C6 DB 
  196.454026 2  652             Tx   d 4 03 76 0A 02
  196.923514 2  752             Rx   d 8 10 F5 36 0B 00 00 00 00
  197.265904 2  652             Tx   d 3 30 00 00
  198.064706 2  752             Rx   d 8 21 3C 75 9D C4 8E 8D 60 
  198.439404 2  752             Rx   d 8 22 62 FD 3C 96 1C 43 1F 
  199.257913 2  752             Rx   d 8 23 66 C1 05 F1 C8 13 54 
  199.634809 2  752             Rx   d 8 24 C8 AF CC EA EE A3 DA 
  200.439260 2  752             Rx   d 8 25 94 A4 0C 4A 37 CD 39 
  200.610431 2  752             Rx   d 8 26 18 BD 14 B9 A1 DE B3 
  201.314513 2  752             Rx   d 8 27 9D 35 EB C4 48 87 0C 
  202.244558 2  752             Rx   d 8 28 9E E7 57 31 6A EC 3F 
  202.944518 2  752             Rx   d 8 29 A5 FA 5D A3 C8 D6 CA 
  203.573274 2  752             Rx   d 8 2A 8F 53 4A B1 84 FB D0 
  203.580660 2  752             Rx   d 8 2B 57 7C 56 F5 81 BB EA 
  204.211021 2  752             Rx   d 8 2C 26 5B 97 C6 D6 A1 8D 
  204.344278 2  752             Rx   d 8 2D 9C 27 92 A9 36 3E EF 
  204.970056 2  752             Rx   d 8 2E B8 84 B4 13 19 63 0B 
  204.973300 2  752             Rx   d 8 20 36 28 72 2B 78 AE 6C 
  205.097022 2  752             Rx   d 8 21 81 16 59 08 DD 2D 55 
  205.342478 2  752             Rx   d 8 22 F1 D1 08 50 11 81 04 
  206.046059 2  752             Rx   d 8 23 10 29 5F 10 FD C8 AF 
  206.829103 2  752             Rx   d 8 24 0C A2 0F 14 8B 84 95 
  207.371358 2  752             Rx   d 8 25 22 B0 98 CF C9 7A C9 
  207.755843 2  752             Rx   d 8 26 BD AA 77 AF 19 2A E7 
  207.779928 2  752             Rx   d 8 27 B9 12 B2 60 2D FD 8A 
  207.978472 2  752             Rx   d 8 28 0A CF 07 AE 1E FC CF 
  208.670355 2  752             Rx   d 8 29 F5 64 D5 16 B5 C2 01 
  208.750455 2  752             Rx   d 8 2A CF AF A7 03 24 03 A4 
  209.111288 2  752             Rx   d 8 2B F5 59 D8 3C 96 E4 72 
  209.696794 2  752             Rx   d 8 2C 97 52 6A 6E F1 EC E2 
  209.858692 2  752             Rx   d 8 2D 6C 7A 30 28 E3 46 81 
  210.200525 2  752             Rx   d 8 2E 4C 22 15 64 D2 53 71 
  210.532863 2  752             Rx   d 8 20 FC 6D 53 AA E7 C9 74 
  210.981889 2  752             Rx   d 8 21 E0 11 D5 68 18 71 70 
  211.713262 2  752             Rx   d 8 22 B8 40 D4 69 12 49 A4 
  212.432625 2  752             Rx   d 8 23 D9 C6 42 F7 26 6F 5D 
  212.847651 2  752             Rx   d 8 24 4C 77 B5 E3 31 88 E8 
  213.090484 2  752             Rx   d 8 25 02 BF 88 AE 12 D9 FE 
  214.063474 2  652             Tx   d 4 03 76 0B 02
  214.668829 2  752             Rx   d 8 10 F5 36 0C 00 00 00 00
  215.074680 2  652             Tx   d 3 30 00 00
  215.347534 2  752             Rx   d 8 21 EB 97 CE 94 29 82 88 
  216.169259 2  752             Rx   d 8 22 87 A9 64 3C 15 D0 F9 
  216.684233 2  752             Rx   d 8 23 DE F5 DD 15 7C D4 5A 
  217.444613 2  752             Rx   d 8 24 C1 CE B9 48 15 32 A7 
  217.620024 2  752             Rx   d 8 25 F9 D1 27 BF 24 C4 58 
  217.727375 2  752             Rx   d 8 26 C6 20 68 54 44 99 BE 
  218.335907 2  752             Rx   d 8 27 90 30 8A 94 7F 90 32 
  218.752131 2  752             Rx   d 8 28 92 D3 1A C9 28 FF C1 
  219.669459 2  752             Rx   d 8 29 7A FF A9 FE 38 07 5A 
  220.071839 2  752             Rx   d 8 2A A5 A9 D8 5B 9E A2 BB 
  220.540705 2  752             Rx   d 8 2B EC 11 BB BC 24 82 23 
  221.524559 2  752             Rx   d 8 2C 85 DE CE A7 8F 1A B1 
  222.397782 2  752             Rx   d 8 2D 2D 8E 7F 11 CE 4F 23 
  223.284366 2  752             Rx   d 8 2E A7 A2 25 A0 01 05 70 
  223.699881 2  752             Rx   d 8 20 CB 1F 1A A8 B5 C6 96 
  223.887045 2  752             Rx   d 8 21 CC 79 3E 3D 61 1B 54 
  224.502150 2  752             Rx   d 8 22 A2 54 12 95 82 77 53 
  224.879045 2  752             Rx   d 8 23 40 81 BD 10 EB F2 04 
  225.407259 2  752             Rx   d 8 24 28 72 C2 1B EF AB 99 
  225.436101 2  752             Rx   d 8 25 CA 8A BC E1 41 C0 09 
  225.987031 2  752             Rx   d 8 26 84 42 E1 22 95 AF 47 
  226.286167 2  752             Rx   d 8 27 72 47 14 75 A5 44 A2 
  226.912951 2  752             Rx   d 8 28 C4 C8 DB 5F 27 1D B6 
  227.461306 2  752             Rx   d 8 29 2F 5B 78 6C 53 03 4A 
  227.661002 2  752             Rx   d 8 2A 89 57 93 EF BE 5D 3F 
  228.315082 2  752             Rx   d 8 2B 2D 90 80 32 24 83 D3 
  229.153788 2  752             Rx   d 8 2C 9C 61 79 FF EC CF FD 
  230.136792 2  752             Rx   d 8 2D 25 6C E6 28 23 C4 77 
  230.889782 2  752             Rx   d 8 2E D9 65 92 D3 B8 6E 7B 
  231.821434 2  752             Rx   d 8 20 C0 D3 9C 00 73 A8 15 
  231.887699 2  752             Rx   d 8 21 C5 DB 02 11 3F 6D 5B 
  232.011090 2  752             Rx   d 8 22 D9 C2 36 73 2B EF 20 
  232.373868 2  752             Rx   d 8 23 3E 5F D9 F5 C3 33 D9 
  233.002566 2  752             Rx   d 8 24 BB 1F 63 2B 24 EB C8 
  233.991056 2  752             Rx   d 8 25 D3 3C 7F 3A 61 79 D4 
  234.103049 2  652             Tx   d 4 03 76 0C 02
  235.073679 2  752             Rx   d 8 10 F5 36 0D 00 00 00 00
  235.460012 2  652             Tx   d 3 30 00 00
  236.014481 2  752             Rx   d 8 21 64 69 61 95 86 2A 77 
  236.440354 2  752             Rx   d 8 22 6A 1A DA B1 A6 10 3C 
  236.695026 2  752             Rx   d 8 23 2E 79 1E A4 08 0D 90 
  236.816860 2  752             Rx   d 8 24 62 0E FF 4B 4B 2F 20 
  237.388374 2  752             Rx   d 8 25 A2 C2 4A 24 B4 39 B6 
  237.700410 2  752             Rx   d 8 26 DB 6C 25 AA A9 2D 00 
  237.723313 2  752             Rx   d 8 27 F6 2D 99 96 9E 5B 55 
  238.678356 2  752             Rx   d 8 28 68 03 3D C5 A3 A2 B4 
  238.720233 2  752             Rx   d 8 29 7F FF F2 01 16 7C CC 
  238.850860 2  752             Rx   d 8 2A 8D B7 66 27 C2 0F 59 
  239.569647 2  752             Rx   d 8 2B 43 18 E6 B4 36 47 BB 
  240.417652 2  752             Rx   d 8 2C F6 35 C9 A2 2B F1 8B 
  240.942974 2  752             Rx   d 8 2D 6F 66 55 5F 91 0C B5 
  241.339594 2  752             Rx   d 8 2E 84 AA AC 9C 7A 49 40 
  241.932222 2  752             Rx   d 8 20 1B A6 FC 84 45 98 61 
  242.776775 2  752             Rx   d 8 21 AB 78 C6 88 5E A2 BF 
  243.398671 2  752             Rx   d 8 22 84 71 6A 74 AB 03 C5 
  244.060830 2  752             Rx   d 8 23 32 D3 D5 64 63 96 43 
  244.893159 2  752             Rx   d 8 24 C6 48 AE 0C FE 51 A3 
  245.654856 2  752             Rx   d 8 25 B2 8C B5 F1 6C 6F 69 
  245.952113 2  752             Rx   d 8 26 D5 39 82 F9 72 43 36 
  246.556102 2  752             Rx   d 8 27 C7 59 E3 03 7D D5 D4 
  247.536511 2  752             Rx   d 8 28 4A CF CC 34 91 25 73 
  248.510510 2  752             Rx   d 8 29 3F D8 9D 3B 60 74 8A 
  248.560875 2  752             Rx   d 8 2A BB F0 B6 37 33 55 42 
  249.552863 2  752             Rx   d 8 2B 74 FD CB 00 8A 52 62 
  249.944461 2  752             Rx   d 8 2C C4 B1 D4 8C 26 BC E7 
  250.857459 2  752             Rx   d 8 2D 91 DC 51 04 58 B1 15 
  251.360961 2  752             Rx   d 8 2E CC 23 33 38 CD 0F 8B 
  251.647833 2  752             Rx   d 8 20 CB D2 FF 7D AB 13 2C 
  252.029582 2  752             Rx   d 8 21 EA D4 CB 5E F7 88 B3 
  252.151297 2  752             Rx   d 8 22 4B B3 34 16 EE D2 D2 
  252.412865 2  752             Rx   d 8 23 6C 69 9D DD DF 5D 55 
  252.482330 2  752             Rx   d 8 24 91 EB 14 11 1C 21 38 
  253.170129 2  752             Rx   d 8 25 47 0B 34 2D 7E E6 C4 
  253.236851 2  652             Tx   d 4 03 76 0D 02
  253.297659 2  752             Rx   d 8 10 F5 36 0E 00 00 00 00
  253.891237 2  652             Tx   d 3 30 00 00
  254.551255 2  752             Rx   d 8 21 DD D2 98 78 52 08 7E 
  254.689627 2  752             Rx   d 8 22 54 10 A7 56 ED 60 9D 
  254.898611 2  752             Rx   d 8 23 64 FF 30 A9 39 14 BE 
  255.001462 2  752             Rx   d 8 24 73 44 6D E7 13 CD DF 
  255.912414 2  752             Rx   d 8 25 4F 71 70 E3 0C C1 93 
  256.624721 2  752             Rx   d 8 26 70 6A 01 F5 EB 83 6E 
  257.464755 2  752             Rx   d 8 27 CD F7 95 38 41 BD 3E 
  258.397978 2  752             Rx   d 8 28 4D 7E 13 67 8B F0 AA 
  258.541104 2  752             Rx   d 8 29 A9 90 18 F0 F2 A7 78 
  259.456473 2  752             Rx   d 8 2A E6 C4 F0 83 C8 CF 3E 
  259.963629 2  752             Rx   d 8 2B 1C 43 24 46 43 38 03 
  260.950403 2  752             Rx   d 8 2C 76 71 96 D0 6E E4 6A 
  261.019570 2  752             Rx   d 8 2D 90 94 26 2E 0C 54 34 
  261.067578 2  752             Rx   d 8 2E 3D 12 67 B0 59 E3 B7 
  261.254683 2  752             Rx   d 8 20 83 3B E0 CD 94 FC 2E 
  261.892792 2  752             Rx   d 8 21 26 65 95 9C 72 0B 19 
  262.017349 2  752             Rx   d 8 22 B0 94 06 0C D5 8D 00 
  262.054972 2  752             Rx   d 8 23 48 79 4D 0D E8 82 41 
  262.712373 2  752             Rx   d 8 24 38 EC C1 B4 92 D6 63 
  263.158247 2  752             Rx   d 8 25 D3 60 8D C8 C9 8B 33 
  264.148262 2  752             Rx   d 8 26 AC 60 78 43 E1 2E 92 
  265.050474 2  752             Rx   d 8 27 02 A3 7D 1C 55 1B 35 
  265.076672 2  752             Rx   d 8 28 7E 9F 30 F4 D1 57 8B 
  266.042447 2  752             Rx   d 8 29 9F DF 81 AE 23 6A 08 
  266.950608 2  752             Rx   d 8 2A F0 C3 17 03 79 E5 12 
  267.630659 2  752             Rx   d 8 2B C9 D2 52 65 74 90 EF 
  267.998603 2  752             Rx   d 8 2C 97 21 5B AA E6 1F 6E 
  268.530862 2  752             Rx   d 8 2D B7 34 FE 4E D4 C8 0F 
  268.924679 2  752             Rx   d 8 2E 37 0C 00 60 F1 79 08 
  269.190969 2  752             Rx   d 8 20 C8 83 49 69 F9 97 CB 
  269.984814 2  752             Rx   d 8 21 42 9C 00 00 C8 EF EC 
  270.906438 2  752             Rx   d 8 22 43 37 92 05 AF 01 71 
  271.261845 2  752             Rx   d 8 23 55 45 BC 4A FB 31 59 
  271.300326 2  752             Rx   d 8 24 A2 64 AA 3E 34 E1 3E 
  271.505821 2  752             Rx   d 8 25 42 47 1C 0A 4C 80 4D 
  272.096252 2  652             Tx   d 4 03 76 0E 02
  272.203368 2  752             Rx   d 8 10 F5 36 0F 00 00 00 00
  272.390980 2  652             Tx   d 3 30 00 00
  273.345279 2  752             Rx   d 8 21 BE 05 42 C0 CE 5E 79 
  274.307210 2  752             Rx   d 8 22 E5 A4 99 08 CB 35 7E 
  274.624194 2  752             Rx   d 8 23 A8 95 F3 92 26 2B AE 
  275.493455 2  752             Rx   d 8 24 CC BF E1 89 41 92 35 
  276.261835 2  752             Rx   d 8 25 31 12 1F 37 57 25 75 
  277.218293 2  752             Rx   d 8 26 24 DC 0A E4 4F 36 DF 
  277.639497 2  752             Rx   d 8 27 F4 ED 4C 98 21 97 11 
  278.421428 2  752             Rx   d 8 28 9A E0 64 52 E4 4C F3 
  278.927038 2  752             Rx   d 8 29 B2 63 E7 07 71 47 46 
  279.498971 2  752             Rx   d 8 2A 62 FB BA 97 BB C4 55 
  280.330625 2  752             Rx   d 8 2B 43 BB 27 39 CD FF 85 
  280.560209 2  752             Rx   d 8 2C 46 5D 3B 8A DC 19 C3 
  280.578348 2  752             Rx   d 8 2D 2B 3F CD 08 E6 FD 04 
  280.959763 2  752             Rx   d 8 2E 63 3E D9 DC 71 AF 08 
  281.065727 2  752             Rx   d 8 20 D3 0E B6 EA F0 A9 85 
  282.017032 2  752             Rx   d 8 21 09 31 02 28 6D D4 13 
  282.501813 2  752             Rx   d 8 22 B2 47 F4 16 98 05 4E 
  282.980225 2  752             Rx   d 8 23 FC EC FE 47 06 2D 00 
  283.601364 2  752             Rx   d 8 24 E7 6F CB 93 0A 4F 3C 
  284.198999 2  752             Rx   d 8 25 65 EA B6 C0 B6 81 51 
  284.748728 2  752             Rx   d 8 26 E1 79 8E B4 58 14 59 
  285.484173 2  752             Rx   d 8 27 9A F9 A2 CA AC 9E 2E 
  286.437968 2  752             Rx   d 8 28 22 9B CA E8 12 AE 4F 
  287.112089 2  752             Rx   d 8 29 21 CE F2 92 33 57 3B 
  287.577932 2  752             Rx   d 8 2A 1C 25 C5 4B 7D FE 88 
  288.275957 2  752             Rx   d 8 2B CF 52 86 8D E2 64 94 
  288.860927 2  752             Rx   d 8 2C A7 E2 3B 0C 91 E4 6D 
  289.516534 2  752             Rx   d 8 2D E3 0B 2D 8D CF 84 49 
  289.989868 2  752             Rx   d 8 2E 4F 59 EA 29 60 69 81 
  290.320169 2  752             Rx   d 8 20 0E F2 CD 6C A2 89 E7 
  291.040460 2  752             Rx   d 8 21 85 4C BD 80 D0 31 C0 
  292.026172 2  752             Rx   d 8 22 F0 D3 B6 E4 65 75 50 
  292.737005 2  752             Rx   d 8 23 B6 79 DD 5F 5B 81 DD 
  293.413520 2  752             Rx   d 8 24 3A BD 75 31 B0 4C 11 
  294.203565 2  752             Rx   d 8 25 75 00 CE 93 19 99 C7 
  294.495801 2  652             Tx   d 4 03 76 0F 02
  295.281047 2  752             Rx   d 8 10 F5 36 10 00 00 00 00
  296.257663 2  652             Tx   d 3 30 00 00
  296.803608 2  752             Rx   d 8 21 F4 3B 55 F4 5A 79 FC 
  297.714794 2  752             Rx   d 8 22 90 D2 EB 47 D5 FD 16 
  298.482848 2  752             Rx   d 8 23 FF B5 FA A1 CF 7F 89 
  299.092655 2  752             Rx   d 8 24 84 64 5F 4D F5 82 19 
  299.812191 2  752             Rx   d 8 25 D7 76 91 B7 58 01 9E 
  300.343918 2  752             Rx   d 8 26 CC D6 FB E3 AA 6D 4A 
  301.330144 2  752             Rx   d 8 27 8F F8 32 6A 0E 1F 78 
  301.893176 2  752             Rx   d 8 28 80 17 65 CC 71 EE 6C 
  302.368374 2  752             Rx   d 8 29 E4 E7 08 F0 1D 11 3F 
  302.608695 2  752             Rx   d 8 2A 44 9F 78 CE 52 A8 E8 
  303.024107 2  752             Rx   d 8 2B 83 44 33 F6 B8 F2 07 
  303.587135 2  752             Rx   d 8 2C 1D 54 7A BB 54 25 EC 
  303.982284 2  752             Rx   d 8 2D 0E 1D FF E5 EF C2 97 
  304.619843 2  752             Rx   d 8 2E C9 B7 2A C4 C4 83 36 
  304.737778 2  752             Rx   d 8 20 34 42 56 64 10 8C CF 
  305.657377 2  752             Rx   d 8 21 BE B5 A1 69 E0 39 95 
  305.882884 2  752             Rx   d 8 22 63 D5 1B 0A D3 FC 65 
  306.326373 2  752             Rx   d 8 23 AD 2F 0D 4D 82 51 FF 
  306.676137 2  752             Rx   d 8 24 9A B0 94 4F 71 38 82 
  307.344359 2  752             Rx   d 8 25 C8 6B 8D 05 99 B8 E8 
  308.272966 2  752             Rx   d 8 26 0E AC C9 C7 A0 04 E4 
  308.610687 2  752             Rx   d 8 27 4C 0C DE D0 5E C9 45 
  308.960207 2  752             Rx   d 8 28 D5 1B 6F FA 00 E6 94 
  309.738736 2  752             Rx   d 8 29 86 44 17 B2 77 D4 9C 
  310.372567 2  752             Rx   d 8 2A 76 79 FC E2 0F A8 3A 
  310.661670 2  752             Rx   d 8 2B 73 2E E3 A6 2B CB 20 
  311.105038 2  752             Rx   d 8 2C 89 A8 7D 0F 68 0B 9D 
  311.858792 2  752             Rx   d 8 2D 27 97 F9 C5 8E 9D AC 
  312.006611 2  752             Rx   d 8 2E CC 5A F5 C3 D4 40 DC 
  312.681353 2  752             Rx   d 8 20 71 67 74 5A 38 E1 22 
  313.597143 2  752             Rx   d 8 21 F0 7A ED 05 F4 6C 59 
  313.671164 2  752             Rx   d 8 22 10 B7 E2 0F A7 8E E5 
  314.559131 2  752             Rx   d 8 23 02 6C F7 62 E2 28 53 
  315.535241 2  752             Rx   d 8 24 BC F2 C1 2A 3D 0E 3C 
  315.536046 2  752             Rx   d 8 25 75 1E B4 85 5B AF C0 
  315.604765 2  652             Tx   d 4 03 76 10 02
  316.303103 2  752             Rx   d 8 10 F5 36 11 00 00 00 00
  316.749209 2  652             Tx   d 3 30 00 00
  316.815477 2  752             Rx   d 8 21 CE B1 24 68 29 F0 A9 
  317.499833 2  752             Rx   d 8 22 B7 C3 18 97 56 26 D7 
  318.030998 2  752             Rx   d 8 23 31 B6 D8 59 CD AA 8E 
  318.335175 2  752             Rx   d 8 24 66 11 B0 17 4B 65 5F 
  319.028187 2  752             Rx   d 8 25 58 E4 1C 00 50 D8 21 
  319.902364 2  752             Rx   d 8 26 A5 28 B5 C7 47 DD 60 
  319.987315 2  752             Rx   d 8 27 8D FC 83 D9 4F BF 13 
  320.725651 2  752             Rx   d 8 28 E8 4E 18 D1 93 A0 40 
  321.609582 2  752             Rx   d 8 29 A2 3B D7 23 4D FB 02 
  322.477908 2  752             Rx   d 8 2A 5D 8E EF CE 53 4C 3B 
  323.104796 2  752             Rx   d 8 2B BD E3 67 6C A9 6C 4C 
  323.788471 2  752             Rx   d 8 2C 1C 5E 5D E1 49 26 97 
  324.224704 2  752             Rx   d 8 2D D3 4B E1 8D E5 76 93 
  325.094509 2  752             Rx   d 8 2E F7 A7 8D 59 96 CD 24 
  325.233369 2  752             Rx   d 8 20 F0 A4 32 0A EE 24 DA 
  325.819742 2  752             Rx   d 8 21 A2 FC F5 90 C3 70 BE 
  325.838784 2  752             Rx   d 8 22 83 55 CA 69 69 61 B4 
  326.374579 2  752             Rx   d 8 23 90 43 9C 57 BF 96 20 
  326.905204 2  752             Rx   d 8 24 E1 56 AC 28 A6 80 B6 
  327.811532 2  752             Rx   d 8 25 4E 27 FD 53 07 76 1B 
  328.672858 2  752             Rx   d 8 26 2B F9 70 FA B6 8C 0B 
  329.352954 2  752             Rx   d 8 27 53 9A AD 9B 11 65 E5 
  330.222036 2  752             Rx   d 8 28 66 76 0C B2 E4 38 63 
  330.226796 2  752             Rx   d 8 29 F6 15 49 59 69 3E D2 
  330.552247 2  752             Rx   d 8 2A 82 38 7F 81 DE 63 4B 
  331.103574 2  752             Rx   d 8 2B C4 A7 F2 E0 E5 66 9E 
  331.510963 2  752             Rx   d 8 2C A0 FF 64 3B 84 2A F5 
  332.424400 2  752             Rx   d 8 2D D0 72 99 64 4D 54 C1 
  332.679160 2  752             Rx   d 8 2E 90 B0 23 8E 1C E4 14 
  333.559680 2  752             Rx   d 8 20 DB 13 DA AE A8 E5 ED 
  334.340220 2  752             Rx   d 8 21 47 3E 2D 3C 7B 63 8A 
  335.017940 2  752             Rx   d 8 22 F3 A6 06 BD 34 B7 44 
  335.417345 2  752             Rx   d 8 23 07 42 F5 97 2A 2D 86 
  335.617045 2  752             Rx   d 8 24 74 21 E5 79 D2 92 0B 
  336.532695 2  752             Rx   d 8 25 AA B7 5C B9 17 78 4C 
  337.095366 2  652             Tx   d 4 03 76 11 02
  337.956735 2  752             Rx   d 8 10 F5 36 12 00 00 00 00
  338.946263 2  652             Tx   d 3 30 00 00
  339.364805 2  752             Rx   d 8 21 44 0B E8 BC 17 72 64 
  339.427690 2  752             Rx   d 8 22 95 DF 9A 73 2A B3 D4 
  339.486381 2  752             Rx   d 8 23 02 BF 91 0B D7 21 F2 
  339.693485 2  752             Rx   d 8 24 40 9A 07 B1 E2 F3 7A 
  339.971266 2  752             Rx   d 8 25 C6 5C 17 D5 06 AB 42 
  340.669644 2  752             Rx   d 8 26 4A 4D F4 F5 CC F2 EC 
  341.323970 2  752             Rx   d 8 27 C8 5D BB 88 F2 8F 0F 
  341.722464 2  752             Rx   d 8 28 DF FA 0D 10 7A E7 D5 
  341.742096 2  752             Rx   d 8 29 B6 46 63 47 D3 37 A5 
  342.637121 2  752             Rx   d 8 2A AB D6 D9 6C 24 71 C7 
  343.231268 2  752             Rx   d 8 2B 8E 7F C2 BF 2B D6 B5 
  344.129522 2  752             Rx   d 8 2C 42 E4 44 3C 82 26 91 
  344.539898 2  752             Rx   d 8 2D 8D 8B A6 2B D3 8A 1F 
  345.458728 2  752             Rx   d 8 2E A2 F6 76 9F EB 2A 62 
  345.602555 2  752             Rx   d 8 20 0E C2 FE E1 2F ED 60 
  346.003384 2  752             Rx   d 8 21 23 E9 18 E5 97 82 38 
  346.405021 2  752             Rx   d 8 22 65 4F 98 A1 ED 68 A6 
  347.152746 2  752             Rx   d 8 23 44 A3 E2 F5 78 48 6B 
  348.110042 2  752             Rx   d 8 24 F1 7B E4 6B 28 50 21 
  349.019463 2  752             Rx   d 8 25 82 C6 4A D3 C7 72 D6 
  349.055976 2  752             Rx   d 8 26 45 3C B9 A9 8D 0E 24 
  349.622255 2  752             Rx   d 8 27 D3 A0 2B 5C FD 78 18 
  350.209085 2  752             Rx   d 8 28 8C 34 DA 11 A9 5B 0D 
  350.652883 2  752             Rx   d 8 29 E1 68 7D 83 BB 4D 68 
  350.696447 2  752             Rx   d 8 2A 78 DF 5F 1D 45 9A 06 
  350.834839 2  752             Rx   d 8 2B B6 81 FC 24 70 B5 F1 
  351.030384 2  752             Rx   d 8 2C DE 6D 0B 0B DF 56 C5 
  351.812366 2  752             Rx   d 8 2D 9E EF 82 4C 79 E6 D2 
  352.051555 2  752             Rx   d 8 2E CD 96 19 27 14 9B 59 
  352.730987 2  752             Rx   d 8 20 0B 88 E0 03 51 98 7D 
  352.731135 2  752             Rx   d 8 21 76 34 18 D4 27 DE 25 
  353.648919 2  752             Rx   d 8 22 8A 6F 88 19 34 B7 D6 
  354.099503 2  752             Rx   d 8 23 C2 A3 11 E9 BA 80 B7 
  354.112079 2  752             Rx   d 8 24 8A C8 6C 5B B4 6E E4 
  354.968997 2  752             Rx   d 8 25 A0 70 CA D9 78 7E 6A 
  355.899867 2  652             Tx   d 4 03 76 12 02
  356.583843 2  752             Rx   d 8 10 F5 36 13 00 00 00 00
  357.423063 2  652             Tx   d 3 30 00 00
  358.025716 2  752             Rx   d 8 21 5D D4 A3 8C 90 EF 3B 
  358.274922 2  752             Rx   d 8 22 4E 9D 22 7F 61 DE D8 
  359.142313 2  752             Rx   d 8 23 15 DA 7B 0D 82 5D 7A 
  359.370705 2  752             Rx   d 8 24 4E AC DD 68 68 0B 4D 
  359.574376 2  752             Rx   d 8 25 23 08 8D B3 B8 3C 3F 
  360.093382 2  752             Rx   d 8 26 F2 24 DA DA 58 B7 BD 
  360.890012 2  752             Rx   d 8 27 B2 16 05 BA 1D F6 FC 
  360.916459 2  752             Rx   d 8 28 C4 E5 5B CB 6E D3 9E 
  361.756880 2  752             Rx   d 8 29 4E 89 31 DB 3C 6C 89 
  362.549343 2  752             Rx   d 8 2A E5 36 BD 8E A5 E9 D1 
  362.783438 2  752             Rx   d 8 2B 17 87 F1 92 95 C2 84 
  363.367094 2  752             Rx   d 8 2C E1 96 1B 2D 78 C0 89 
  363.734401 2  752             Rx   d 8 2D 6C 7C CB 6C 21 57 F7 
  364.481633 2  752             Rx   d 8 2E A2 34 90 FC 64 B5 E1 
  365.348210 2  752             Rx   d 8 20 23 11 D1 F9 03 35 26 
  365.704250 2  752             Rx   d 8 21 0E BC 5B 1A D1 B6 51 
  365.778302 2  752             Rx   d 8 22 29 C4 F9 7E 77 48 7D 
  366.545280 2  752             Rx   d 8 23 A2 68 97 D2 32 E4 84 
  366.872572 2  752             Rx   d 8 24 2B 1C 18 5E F0 10 28 
  367.425078 2  752             Rx   d 8 25 FC 20 F9 E6 3B 9F 09 
  368.162673 2  752             Rx   d 8 26 2D 4F B5 2A FF 5A 98 
  368.324772 2  752             Rx   d 8 27 C6 60 FE 4A C0 AD F6 
  369.239723 2  752             Rx   d 8 28 D8 30 C4 43 EF EC CC 
  369.377357 2  752             Rx   d 8 29 ED E4 57 EF 9C 1E 36 
  369.850968 2  752             Rx   d 8 2A 3F 78 8C A1 0F 87 54 
  370.215951 2  752             Rx   d 8 2B 0D 27 80 80 D0 4E 5E 
  371.081396 2  752             Rx   d 8 2C 1F C0 F6 50 F9 A2 66 
  371.179016 2  752             Rx   d 8 2D 0D E0 72 E4 A0 61 06 
  371.890626 2  752             Rx   d 8 2E 61 FE 50 F6 86 8D 45 
  372.588661 2  752             Rx   d 8 20 41 52 7B E7 4B A9 02 
  372.898195 2  752             Rx   d 8 21 A9 14 EF 45 0D 52 FA 
  372.918461 2  752             Rx   d 8 22 EA F0 59 11 F7 57 A5 
  373.817224 2  752             Rx   d 8 23 56 C5 BD 35 73 8A 1C 
  373.872403 2  752             Rx   d 8 24 D3 3B 06 21 33 83 BB 
  374.662329 2  752             Rx   d 8 25 BC 88 CD C2 D1 22 9E 
  374.822406 2  652             Tx   d 4 03 76 13 02
  374.907569 2  752             Rx   d 8 10 F5 36 14 00 00 00 00
  375.218675 2  652             Tx   d 3 30 00 00
  375.917925 2  752             Rx   d 8 21 1A 12 3D C7 80 B8 97 
  376.092290 2  752             Rx   d 8 22 38 49 0C 60 A4 22 52 
  376.583934 2  752             Rx   d 8 23 90 88 28 8E 40 81 DA 
  376.597928 2  752             Rx   d 8 24 9E C6 18 B0 DB E7 33 
  377.259534 2  752             Rx   d 8 25 DE B3 1B 36 87 9C 3A 
  377.650420 2  752             Rx   d 8 26 FD C8 0B 3C B0 35 7E 
  377.791756 2  752             Rx   d 8 27 DA AD 01 C8 14 99 17 
  378.402639 2  752             Rx   d 8 28 CB E4 C2 0D A4 6E 9A 
  379.270088 2  752             Rx   d 8 29 31 4E 8C 26 6D 44 3A 
  379.577735 2  752             Rx   d 8 2A 8A 13 29 1F 8D 76 B2 
  380.525923 2  752             Rx   d 8 2B 74 E6 60 7A 31 67 4E 
  381.309992 2  752             Rx   d 8 2C 96 5F 4F 6B 02 87 F9 
  382.275878 2  752             Rx   d 8 2D 5F CB FE 7F E7 98 5E 
  383.077516 2  752             Rx   d 8 2E 18 4D 90 68 F6 BD 6E 
  384.015589 2  752             Rx   d 8 20 82 3A F5 14 79 C3 8D 
  384.928773 2  752             Rx   d 8 21 90 66 5C B2 E8 0E 0A 
  385.529582 2  752             Rx   d 8 22 88 08 D0 09 4F 49 31 
  386.082231 2  752             Rx   d 8 23 B6 60 B4 08 AB 8B AB 
  386.486270 2  752             Rx   d 8 24 DF 3D 9A 7B 05 60 E1 
  387.029943 2  752             Rx   d 8 25 63 AE 49 76 84 23 DA 
  388.002499 2  752             Rx   d 8 26 9E C5 4B 7B 1E CD F4 
  388.824711 2  752             Rx   d 8 27 B5 49 A8 4F 9E B1 78 
  389.316289 2  752             Rx   d 8 28 E8 61 3A 53 6D 74 D1 
  389.455586 2  752             Rx   d 8 29 D1 17 C8 30 92 19 07 
  389.985423 2  752             Rx   d 8 2A 6F 22 26 F9 AE AD AA 
  390.289726 2  752             Rx   d 8 2B 46 55 A4 86 97 68 62 
  391.025118 2  752             Rx   d 8 2C 9C 3D B9 6D 63 98 51 
  391.830946 2  752             Rx   d 8 2D 27 64 AF BC F4 D3 EB 
  392.689117 2  752             Rx   d 8 2E E7 70 2A 0D BD 14 57 
  393.396995 2  752             Rx   d 8 20 9D 2F 69 66 E3 EB A8 
  393.780104 2  752             Rx   d 8 21 20 05 0C C6 30 77 54 
  394.308814 2  752             Rx   d 8 22 FB 76 FA E3 7F 24 CD 
  394.523006 2  752             Rx   d 8 23 03 C2 87 23 D8 AA 21 
  394.618133 2  752             Rx   d 8 24 B1 24 B4 7B 5B 31 6F 
  395.042840 2  752             Rx   d 8 25 B5 CC 73 7A 16 A5 5B 
  395.403504 2  652             Tx   d 4 03 76 14 02
  395.899760 2  752             Rx   d 8 10 F5 36 15 00 00 00 00
  396.801516 2  652             Tx   d 3 30 00 00
  397.066032 2  752             Rx   d 8 21 1C 1F 6F 8E C7 D8 E1 
  397.232614 2  752             Rx   d 8 22 8F EA AF 09 87 74 76 
  397.819859 2  752             Rx   d 8 23 1E 96 D6 CC 9D 04 9C 
  398.490553 2  752             Rx   d 8 24 66 90 CB CA 37 A6 7E 
  398.569489 2  752             Rx   d 8 25 C5 72 F6 52 36 65 1C 
  398.757103 2  752             Rx   d 8 26 F0 68 F4 79 84 60 ED 
  399.013282 2  752             Rx   d 8 27 45 AF 90 53 C0 90 1F 
  399.972542 2  752             Rx   d 8 28 6E C0 7E BD E2 2D 18 
  400.574764 2  752             Rx   d 8 29 E4 B7 52 0E 5E E3 6E 
  401.462574 2  752             Rx   d 8 2A F0 49 DF DC 2F 8B C6 
  401.515324 2  752             Rx   d 8 2B 54 81 71 00 0D 83 4F 
  401.573466 2  752             Rx   d 8 2C 94 66 F9 6F 08 75 D9 
  401.576653 2  752             Rx   d 8 2D C4 3D 9A B0 2B C1 53 
  402.301763 2  752             Rx   d 8 2E 71 12 31 68 99 B3 4A 
  402.465886 2  752             Rx   d 8 20 98 89 AB 03 91 19 E5 
  402.605615 2  752             Rx   d 8 21 E0 CD 95 7E 22 1A 98 
  402.915692 2  752             Rx   d 8 22 34 12 5C F3 9D 79 DB 
  403.597767 2  752             Rx   d 8 23 4E E3 2D 38 E3 97 8F 
  403.641321 2  752             Rx   d 8 24 95 B4 F1 93 8A 0C F2 
  404.559360 2  752             Rx   d 8 25 4E D1 73 AF 2A C5 0C 
  405.126550 2  752             Rx   d 8 26 92 F9 A5 85 C4 51 F4 
  405.777744 2  752             Rx   d 8 27 49 F1 F9 7E 5A C7 8B 
  405.821355 2  752             Rx   d 8 28 AB 31 95 C7 9D 3C 66 
  406.291453 2  752             Rx   d 8 29 F0 04 FC E4 59 D1 AB 
  407.222767 2  752             Rx   d 8 2A 38 67 23 19 3B 76 45 
  407.858412 2  752             Rx   d 8 2B 13 4D 2D 3D B6 AD F3 
  408.112055 2  752             Rx   d 8 2C 42 AD 12 D7 E9 A6 9A 
  408.814580 2  752             Rx   d 8 2D 96 D5 D6 A7 6F 0A 77 
  408.826750 2  752             Rx   d 8 2E BA 5C 36 EB 57 07 7A 
  409.481617 2  752             Rx   d 8 20 3B C3 E8 7A 50 D1 6C 
  409.801331 2  752             Rx   d 8 21 E3 ED 1B 57 F3 DC A4 
  410.747804 2  752             Rx   d 8 22 2B E2 AF DC 43 5F 8F 
  411.618194 2  752             Rx   d 8 23 BA 18 B3 7C FE 2C 4D 
  412.456691 2  752             Rx   d 8 24 BE 62 1C FD A5 07 45 
  412.709550 2  752             Rx   d 8 25 4E 78 92 2F 57 72 80 
  413.263081 2  652             Tx   d 4 03 76 15 02
  413.454778 2  752             Rx   d 8 10 F5 36 16 00 00 00 00
  413.922993 2  652             Tx   d 3 30 00 00
  414.691519 2  752             Rx   d 8 21 1A FD 21 20 9A 84 85 
  415.552542 2  752             Rx   d 8 22 44 4C 81 B4 75 78 32 
  416.128280 2  752             Rx   d 8 23 1A FC 33 24 E4 EB FC 
  416.706712 2  752             Rx   d 8 24 66 DC DF A8 20 04 D9 
  416.880413 2  752             Rx   d 8 25 9F C3 C7 AF D1 C5 02 
  417.824202 2  752             Rx   d 8 26 8C F1 CD 48 C1 C1 00 
  418.651307 2  752             Rx   d 8 27 2E F1 6C 7A 54 4A B0 
  418.672486 2  752             Rx   d 8 28 AB DD BD 57 01 3C 38 
  419.037633 2  752             Rx   d 8 29 E6 A7 85 AC C3 9E 4B 
  419.815974 2  752             Rx   d 8 2A BC 38 8E BD 7F 92 6F 
  420.763826 2  752             Rx   d 8 2B D1 FE E6 3E 90 28 5D 
  421.407071 2  752             Rx   d 8 2C 3E 67 B7 B3 39 8F D2 
  422.352286 2  752             Rx   d 8 2D 96 B3 5A BD 19 74 3D 
  423.345019 2  752             Rx   d 8 2E D9 F2 03 AA 48 67 26 
  424.114773 2  752             Rx   d 8 20 25 66 10 DB 41 2C 6F 
  424.373110 2  752             Rx   d 8 21 21 92 E4 19 45 E4 9F 
  425.005360 2  752             Rx   d 8 22 5A 38 BF F3 60 B9 BD 
  425.787531 2  752             Rx   d 8 23 BD 20 1A C3 91 EE 59 
  426.297398 2  752             Rx   d 8 24 44 F8 0F B3 31 12 96 
  426.838708 2  752             Rx   d 8 25 A9 E2 14 A7 99 11 61 
  427.363237 2  752             Rx   d 8 26 04 AC 73 A7 F4 46 5C 
  427.602767 2  752             Rx   d 8 27 5E DA 87 7A 25 07 58 
  428.524394 2  752             Rx   d 8 28 C6 89 A2 63 85 DD 61 
  429.186236 2  752             Rx   d 8 29 40 23 D1 7D 50 09 36 
  429.552521 2  752             Rx   d 8 2A 27 65 F9 BF 8E 52 80 
  430.443762 2  752             Rx   d 8 2B 9A 7D DC 29 01 69 34 
  430.967701 2  752             Rx   d 8 2C D9 AD 1D 0B C1 32 C9 
  431.338917 2  752             Rx   d 8 2D 8C E8 C2 E9 81 D3 00 
  432.261051 2  752             Rx   d 8 2E 67 7C 4C AE 11 98 57 
  433.202947 2  752             Rx   d 8 20 1D 4A 66 FB F6 6C F2 
  433.602256 2  752             Rx   d 8 21 70 27 A8 95 C3 0E 64 
  433.785820 2  752             Rx   d 8 22 B5 19 08 84 A8 F1 EF 
  433.791573 2  752             Rx   d 8 23 7E 5C 6D B0 E4 0C 89 
  433.923983 2  752             Rx   d 8 24 13 BB BA 88 C7 FA 6F 
  434.279025 2  752             Rx   d 8 25 55 D3 92 63 FF A2 4C 
  435.183585 2  652             Tx   d 4 03 76 16 02
  435.840599 2  752             Rx   d 8 10 F5 36 17 00 00 00 00
  436.773608 2  652             Tx   d 3 30 00 00
  437.111306 2  752             Rx   d 8 21 B3 E1 5F E9 91 48 38 
  438.075770 2  752             Rx   d 8 22 44 DB 05 A1 02 7D 36 
  438.568316 2  752             Rx   d 8 23 2C 21 62 88 92 44 A3 
  439.075841 2  752             Rx   d 8 24 63 0F 5D 3F 2D CB 41 
  439.260444 2  752             Rx   d 8 25 45 64 80 E8 DB 28 BA 
  439.406158 2  752             Rx   d 8 26 D4 6A 45 99 0B B3 11 
  439.712808 2  752             Rx   d 8 27 D3 55 CD DF 09 12 03 
  440.018806 2  752             Rx   d 8 28 59 A8 EC E0 2C 0C F4 
  440.715750 2  752             Rx   d 8 29 C2 3E 95 A4 C4 97 B4 
  440.744083 2  752             Rx   d 8 2A F9 8B B8 A9 FA 7D 3E 
  441.153010 2  752             Rx   d 8 2B 93 31 8D 2D 52 3F 4B 
  442.119163 2  752             Rx   d 8 2C 41 4A 61 57 47 38 04 
  442.969078 2  752             Rx   d 8 2D EB A9 6D 56 27 E1 79 
  443.520432 2  752             Rx   d 8 2E E3 3E 5D 35 64 6B B2 
  443.815562 2  752             Rx   d 8 20 CE AC 38 30 ED 74 4C 
  444.568752 2  752             Rx   d 8 21 06 27 22 FF 35 E4 1E 
  444.958144 2  752             Rx   d 8 22 EE 9C 2D 7D A0 58 FE 
  445.926355 2  752             Rx   d 8 23 3E 65 34 87 74 A3 C1 
  446.732196 2  752             Rx   d 8 24 4B 54 0D 9C FD F5 FE 
  447.503086 2  752             Rx   d 8 25 73 D0 90 1C E2 7D 05 
  447.683839 2  752             Rx   d 8 26 0D E2 6B 86 70 B4 78 
  447.924136 2  752             Rx   d 8 27 54 43 53 A6 3E F4 19 
  448.007618 2  752             Rx   d 8 28 31 7D 3D 7C C2 1E E8 
  448.139480 2  752             Rx   d 8 29 5D 32 05 67 FE F6 70 
  448.510997 2  752             Rx   d 8 2A 19 0A B6 40 DF 22 1B 
  449.020844 2  752             Rx   d 8 2B D4 B1 26 A3 B0 79 8A 
  449.124667 2  752             Rx   d 8 2C C3 EA 2F 5F 18 48 06 
  450.104712 2  752             Rx   d 8 2D EE 26 FF F9 D9 8D 2F 
  450.474426 2  752             Rx   d 8 2E B9 60 5F C0 1A 58 4D 
  450.985640 2  752             Rx   d 8 20 65 64 77 39 99 51 84 
  451.592388 2  752             Rx   d 8 21 78 9D A1 A8 6F 92 40 
  452.171376 2  752             Rx   d 8 22 C6 1D 42 41 43 BF 58 
  452.741001 2  752             Rx   d 8 23 C6 25 90 5E D2 EE 1B 
  453.365681 2  752             Rx   d 8 24 06 83 17 50 D7 2D DC 
  453.496882 2  752             Rx   d 8 25 0B FF 83 96 7C 5B 48 
  454.202625 2  652             Tx   d 4 03 76 17 02
  455.055055 2  752             Rx   d 8 10 F5 36 18 00 00 00 00
  455.563130 2  652             Tx   d 3 30 00 00
  456.471997 2  752             Rx   d 8 21 5E 3F 47 56 00 96 84 
  457.436370 2  752             Rx   d 8 22 7E 25 BB 41 60 71 F0 
  457.475529 2  752             Rx   d 8 23 37 7A DE A4 6D 60 20 
  457.618550 2  752             Rx   d 8 24 09 15 83 1E 22 5C FB 
  457.751663 2  752             Rx   d 8 25 A7 70 38 71 60 0C 33 
  458.423026 2  752             Rx   d 8 26 30 6E 84 49 8F 92 49 
  458.427929 2  752             Rx   d 8 27 2B D1 78 37 E7 8C 1E 
  458.904015 2  752             Rx   d 8 28 C5 0D 2B D9 7B B8 3F 
  459.457350 2  752             Rx   d 8 29 98 C2 27 B8 B3 4C DD 
  460.293049 2  752             Rx   d 8 2A D8 23 7C D8 2B AB BD 
  461.269469 2  752             Rx   d 8 2B 9C C4 2E 52 A6 A9 10 
  461.369074 2  752             Rx   d 8 2C 47 D1 C7 CC 44 60 9C 
  461.724252 2  752             Rx   d 8 2D 28 71 86 0D D8 C8 34 
  462.086957 2  752             Rx   d 8 2E 02 EF 0D 13 B1 E2 F6 
  462.786797 2  752             Rx   d 8 20 9F 9F 8F 77 0D C0 54 
  463.189725 2  752             Rx   d 8 21 79 48 A3 41 D7 67 41 
  464.026746 2  752             Rx   d 8 22 8E D9 1C 74 0A CD DF 
  464.701355 2  752             Rx   d 8 23 90 16 6C 18 38 DD BD 
  465.388102 2  752             Rx   d 8 24 E5 8F D8 79 F2 55 60 
  465.867713 2  752             Rx   d 8 25 0C 36 87 8F 7B 47 89 
  466.035909 2  752             Rx   d 8 26 14 B1 D0 10 F8 A9 6E 
  466.209130 2  752             Rx   d 8 27 88 EB 68 9F BE 5B C3 
  466.894331 2  752             Rx   d 8 28 AD 96 03 6D F9 2D EB 
  467.727902 2  752             Rx   d 8 29 94 6F 69 8D EA 70 5E 
  468.117152 2  752             Rx   d 8 2A B8 5A AF E0 E9 1B 84 
  468.200298 2  752             Rx   d 8 2B 96 FD 09 65 41 35 F3 
  468.285459 2  752             Rx   d 8 2C 3C 4C D4 C0 64 C1 C0 
  468.870204 2  752             Rx   d 8 2D 6A 59 BD CA 8B D2 6A 
  469.604668 2  752             Rx   d 8 2E 75 97 54 7B 72 CA 17 
  469.949908 2  752             Rx   d 8 20 FC 1A 47 0F 9F D8 3A 
  470.454372 2  752             Rx   d 8 21 4F 8C 33 3F 88 96 76 
  470.833225 2  752             Rx   d 8 22 62 8B 8D FD 26 E9 49 
  471.295664 2  752             Rx   d 8 23 42 74 7E 32 5C 23 83 
  472.181926 2  752             Rx   d 8 24 FE 89 1E 10 E2 07 32 
  472.441772 2  752             Rx   d 8 25 32 53 D9 84 91 14 7D 
  472.917133 2  652             Tx   d 4 03 76 18 02
  473.057904 2  752             Rx   d 8 10 F5 36 19 00 00 00 00
  474.011798 2  652             Tx   d 3 30 00 00
  474.208163 2  752             Rx   d 8 21 E9 12 1E BB A4 E6 41 
  474.253812 2  752             Rx   d 8 22 E9 8D 5F 79 9D B4 B4 
  475.040323 2  752             Rx   d 8 23 22 C0 10 78 8D 2A 84 
  475.378732 2  752             Rx   d 8 24 51 E5 CE 77 C2 C3 27 
  476.225016 2  752             Rx   d 8 25 E7 DB 74 3D D2 EE D9 
  476.576081 2  752             Rx   d 8 26 BE D6 55 62 00 CF 1F 
  477.275409 2  752             Rx   d 8 27 C5 6E 03 56 07 1A F8 
  477.330043 2  752             Rx   d 8 28 52 F9 6B 4F 19 A3 24 
  477.959265 2  752             Rx   d 8 29 6C 9B 9C E5 27 A9 A2 
  478.501769 2  752             Rx   d 8 2A 4C 46 F0 28 78 55 5A 
  478.947296 2  752             Rx   d 8 2B C3 4F C8 D0 2A 89 7C 
  479.503512 2  752             Rx   d 8 2C 92 FB 42 3A F9 7C 73 
  479.532325 2  752             Rx   d 8 2D 2E B7 4E 11 49 AF B9 
  480.118013 2  752             Rx   d 8 2E 43 9B 96 41 71 42 04 
  480.126788 2  752             Rx   d 8 20 4B B9 FC 10 FC 0A B7 
  480.181030 2  752             Rx   d 8 21 F9 73 84 99 81 C5 24 
  480.290806 2  752             Rx   d 8 22 22 FB 90 68 0A AD 2C 
  480.966939 2  752             Rx   d 8 23 85 ED BF 5D 06 64 5C 
  481.472522 2  752             Rx   d 8 24 9D 76 64 FB B1 EA 7C 
  482.407745 2  752             Rx   d 8 25 27 A6 AF 5A 06 13 21 
  482.548146 2  752             Rx   d 8 26 CE FA D9 8A 6F FC 7D 
  482.605245 2  752             Rx   d 8 27 7B F8 9D 38 14 36 93 
  483.055556 2  752             Rx   d 8 28 12 29 5F 2A 91 FF C6 
  483.345328 2  752             Rx   d 8 29 37 D8 C7 5B DC EA 68 
  484.063947 2  752             Rx   d 8 2A 27 B5 44 15 4D 89 82 
  484.333784 2  752             Rx   d 8 2B BF 5D AB 47 55 7F D0 
  485.050633 2  752             Rx   d 8 2C 5A CA D6 90 EC 59 59 
  485.959967 2  752             Rx   d 8 2D B5 3F 81 D5 86 CE A9 
  486.127633 2  752             Rx   d 8 2E C6 08 D2 D3 44 0A BC 
  486.475060 2  752             Rx   d 8 20 AC B1 38 9B 44 A8 A7 
  487.338497 2  752             Rx   d 8 21 98 E0 52 21 95 3D 27 
  488.096688 2  752             Rx   d 8 22 A8 71 46 9E 49 55 16 
  488.884710 2  752             Rx   d 8 23 28 41 24 B4 BB B9 CA 
  489.675901 2  752             Rx   d 8 24 CC AF 60 17 09 D0 EF 
  490.158811 2  752             Rx   d 8 25 59 8A 1E B2 9B E5 73 
  490.174208 2  652             Tx   d 4 03 76 19 02
  490.708312 2  752             Rx   d 8 10 F5 36 1A 00 00 00 00
  491.563650 2  652             Tx   d 3 30 00 00
  492.221172 2  752             Rx   d 8 21 A4 7B 3D 09 F7 83 A2 
  492.226572 2  752             Rx   d 8 22 D2 B8 C0 88 C8 52 67 
  492.522718 2  752             Rx   d 8 23 35 29 24 01 2A 2F 4E 
  492.783009 2  752             Rx   d 8 24 98 40 3E 66 78 AD 32 
  493.171449 2  752             Rx   d 8 25 C4 80 87 02 37 81 6B 
  493.312761 2  752             Rx   d 8 26 B4 44 24 58 66 11 5D 
  493.401903 2  752             Rx   d 8 27 A4 1B 64 91 07 6C 43 
  493.475554 2  752             Rx   d 8 28 D9 90 DA FA 3B 10 2A 
  494.137735 2  752             Rx   d 8 29 CD 84 18 C9 BA 33 F6 
  495.009418 2  752             Rx   d 8 2A 4D D2 FC 1D AB CA 41 
  495.211255 2  752             Rx   d 8 2B 10 95 19 05 D9 2F 5C 
  496.136267 2  752             Rx   d 8 2C BD 8F 10 63 8B 10 8F 
  496.276078 2  752             Rx   d 8 2D 4D E7 CC F6 74 A1 6A 
  496.980962 2  752             Rx   d 8 2E 85 D8 8E B1 EB 97 67 
  497.622397 2  752             Rx   d 8 20 03 DB 67 72 21 CD CD 
  498.405429 2  752             Rx   d 8 21 CD 00 B9 71 9F 53 3A 
  499.358943 2  752             Rx   d 8 22 7E 66 51 42 F5 73 ED 
  499.642901 2  752             Rx   d 8 23 06 B0 26 9B A1 D1 A3 
  500.642847 2  752             Rx   d 8 24 D0 1C 60 6A 5C 87 F3 
  500.705015 2  752             Rx   d 8 25 A5 85 CE 42 6A F9 41 
  500.833364 2  752             Rx   d 8 26 10 2E C3 3C D4 A8 0F 
  501.240703 2  752             Rx   d 8 27 41 49 22 F4 52 A4 0F 
  501.543909 2  752             Rx   d 8 28 98 19 9F F4 4C 30 B7 
  502.082229 2  752             Rx   d 8 29 13 36 29 34 27 02 F4 
  502.169714 2  752             Rx   d 8 2A 41 5B B6 E5 FB CF B5 
  502.384455 2  752             Rx   d 8 2B 92 69 18 FE 5C 4C AF 
  502.562597 2  752             Rx   d 8 2C CE 94 98 A3 5F 98 B7 
  502.621995 2  752             Rx   d 8 2D FA 0B F5 C4 D4 E6 DC 
  503.190744 2  752             Rx   d 8 2E E7 26 F4 83 EB 51 B5 
  503.470433 2  752             Rx   d 8 20 F7 8D 64 C5 DD 3F 9F 
  504.172971 2  752             Rx   d 8 21 4D 5A 11 12 E3 3C 98 
  504.796567 2  752             Rx   d 8 22 AF 9C 72 20 C7 D3 7B 
  505.592863 2  752             Rx   d 8 23 B3 64 43 F5 CD E3 AF 
  506.086025 2  752             Rx   d 8 24 BF C3 33 8C 10 0B CB 
  506.379679 2  752             Rx   d 8 25 8D F7 CE 66 6C C2 E3 
  507.284602 2  652             Tx   d 4 03 76 1A 02
  507.451973 2  752             Rx   d 8 10 F5 36 1B 00 00 00 00
  508.406551 2  652             Tx   d 3 30 00 00
  508.561410 2  752             Rx   d 8 21 37 7E 6D 5D AA BD 22 
  508.914184 2  752             Rx   d 8 22 D4 23 A7 CA 21 55 82 
  509.778238 2  752             Rx   d 8 23 57 02 41 81 DB B1 7A 
  510.095306 2  752             Rx   d 8 24 88 CE 2B DC 7C 6C A7 
  510.640748 2  752             Rx   d 8 25 F5 86 66 A0 01 01 9B 
  511.221511 2  752             Rx   d 8 26 29 D0 84 F7 0C B1 B0 
  512.023149 2  752             Rx   d 8 27 46 6B 96 F1 23 AE 33 
  512.512437 2  752             Rx   d 8 28 97 3F E2 19 4F 63 F9 
  512.535774 2  752             Rx   d 8 29 15 CA 53 8B 6D 25 B1 
  512.798012 2  752             Rx   d 8 2A 2F B5 10 C1 8C D4 3C 
  513.072190 2  752             Rx   d 8 2B E7 BD 7B 0D 25 71 8A 
  513.839505 2  752             Rx   d 8 2C 8F 64 97 00 47 E0 E9 
  514.747214 2  752             Rx   d 8 2D DA 3D EB 92 5C E3 7D 
  515.131994 2  752             Rx   d 8 2E 90 91 A0 B8 E2 62 D7 
  516.018431 2  752             Rx   d 8 20 62 EA A8 AA 03 C2 B3 
  516.618546 2  752             Rx   d 8 21 88 FF EB A7 2D 44 DC 
  517.096933 2  752             Rx   d 8 22 19 98 11 B6 3A 4B CC 
  517.826978 2  752             Rx   d 8 23 67 68 3A 55 C9 7B ED 
  518.416950 2  752             Rx   d 8 24 95 BB 70 47 72 34 D9 
  518.604046 2  752             Rx   d 8 25 55 A6 2A 58 E1 2A 3D 
  519.514035 2  752             Rx   d 8 26 FE 05 67 E1 AA 72 87 
  519.766602 2  752             Rx   d 8 27 1C E4 2A FF 74 0B 88 
  520.052893 2  752             Rx   d 8 28 39 9B E5 F1 DB 4C 3A 
  520.269439 2  752             Rx   d 8 29 BE 1C 1D 30 C8 53 CA 
  520.415070 2  752             Rx   d 8 2A A1 DF 0B 7F 6F B5 73 
  520.663382 2  752             Rx   d 8 2B 86 87 D5 AF 5A 78 0E 
  520.749412 2  752             Rx   d 8 2C BF 37 25 E5 36 13 72 
  520.817994 2  752             Rx   d 8 2D C3 33 AD C4 CC 00 C2 
  521.329125 2  752             Rx   d 8 2E 9A E5 BB 46 5F 10 62 
  521.728389 2  752             Rx   d 8 20 78 AE 32 6C 87 DE 36 
  522.044031 2  752             Rx   d 8 21 D5 8E E9 6D FF 15 E2 
  522.447651 2  752             Rx   d 8 22 B8 8B CC EE F4 8C FE 
  523.046006 2  752             Rx   d 8 23 54 E5 FF DE 4C 98 69 
  523.871465 2  752             Rx   d 8 24 BC 99 17 30 AF 0D B0 
  524.276365 2  752             Rx   d 8 25 22 B6 9F 98 73 77 EE 
  525.041034 2  652             Tx   d 4 03 76 1B 02
  525.617528 2  752             Rx   d 8 10 F5 36 1C 00 00 00 00
  526.095012 2  652             Tx   d 3 30 00 00
  526.531452 2  752             Rx   d 8 21 4F A2 E8 8A 62 7E 57 
  527.300576 2  752             Rx   d 8 22 76 9F AB 26 1D A2 6F 
  527.756544 2  752             Rx   d 8 23 7B B1 CA 6C F0 BE 8E 
  528.553673 2  752             Rx   d 8 24 FD 7A 61 9F FC A5 E2 
  528.744245 2  752             Rx   d 8 25 EF FA 60 79 56 3A 3A 
  529.602861 2  752             Rx   d 8 26 97 10 49 C2 87 B3 B9 
  530.545253 2  752             Rx   d 8 27 57 5E 33 B5 23 90 63 
  531.089842 2  752             Rx   d 8 28 06 23 69 EC AD A6 FA 
  531.455656 2  752             Rx   d 8 29 22 0C EF 42 73 88 B4 
  532.338299 2  752             Rx   d 8 2A 84 BD 49 AF 5A 9D 09 
  533.210564 2  752             Rx   d 8 2B 39 D3 DE 96 37 01 53 
  533.464484 2  752             Rx   d 8 2C F0 6B CC 40 7D BF 3E 
  533.803851 2  752             Rx   d 8 2D F0 FC 2C 04 0E B5 8B 
  534.773997 2  752             Rx   d 8 2E C2 40 E0 9D 11 87 0A 
  535.379691 2  752             Rx   d 8 20 1A 29 CC 9C 47 D3 0E 
  536.107759 2  752             Rx   d 8 21 B1 20 A3 31 84 ED 1B 
  536.352166 2  752             Rx   d 8 22 36 6F 0F 9A AE 7E 6E 
  537.297204 2  752             Rx   d 8 23 E8 55 ED 3D 5F EA 3C 
  537.900513 2  752             Rx   d 8 24 F9 17 20 5E 8F 5C A5 
  538.474083 2  752             Rx   d 8 25 75 15 F0 50 12 93 65 
  538.541203 2  752             Rx   d 8 26 AD 49 63 90 9E 40 FD 
  538.728287 2  752             Rx   d 8 27 8E AA FB 71 E1 CA 9E 
  539.152901 2  752             Rx   d 8 28 14 26 44 0E 06 8E A5 
  539.726178 2  752             Rx   d 8 29 57 E2 58 32 65 2B FA 
  540.575498 2  752             Rx   d 8 2A A6 72 06 72 B1 26 A1 
  540.660845 2  752             Rx   d 8 2B 05 4C 1A 4B 2F FF 96 
  541.294711 2  752             Rx   d 8 2C 74 5C EC 43 B9 61 2D 
  541.707120 2  752             Rx   d 8 2D 10 B9 58 69 F3 3C 81 
  542.639745 2  752             Rx   d 8 2E 55 68 82 AD A5 7C E8 
  543.497644 2  752             Rx   d 8 20 03 52 07 56 D0 1F 03 
  543.608707 2  752             Rx   d 8 21 AF EE B0 53 19 08 E6 
  544.573462 2  752             Rx   d 8 22 23 B0 9A E1 2E F8 92 
  544.708967 2  752             Rx   d 8 23 3B DC 66 B9 C1 59 9C 
  545.618177 2  752             Rx   d 8 24 33 30 B6 21 26 5D E4 
  546.458768 2  752             Rx   d 8 25 C6 11 E7 13 77 9E 9E 
  547.187152 2  652             Tx   d 4 03 76 1C 02
  547.448025 2  752             Rx   d 8 10 F5 36 1D 00 00 00 00
  547.638205 2  652             Tx   d 3 30 00 00
  548.203386 2  752             Rx   d 8 21 57 C6 BF D1 EA 81 36 
  548.419556 2  752             Rx   d 8 22 E2 E2 D4 F6 32 19 06 
  549.103701 2  752             Rx   d 8 23 78 C2 07 25 28 84 68 
  549.507474 2  752             Rx   d 8 24 D3 7F 59 89 AF 43 B6 
  550.455690 2  752             Rx   d 8 25 76 5E 87 56 3D 59 B1 
  551.450364 2  752             Rx   d 8 26 17 99 38 87 EF 72 37 
  552.315722 2  752             Rx   d 8 27 94 F6 43 2B 17 0D 96 
  552.960484 2  752             Rx   d 8 28 2B 0D 27 19 90 E1 1B 
  553.813837 2  752             Rx   d 8 29 DD 60 E2 FC EA B4 5D 
  554.110352 2  752             Rx   d 8 2A E0 41 8D 7B 34 64 DA 
  554.742307 2  752             Rx   d 8 2B 54 CB 3E 70 93 6E 01 
  555.409927 2  752             Rx   d 8 2C 47 E9 C4 23 A2 19 A4 
  556.004168 2  752             Rx   d 8 2D A4 05 34 F0 86 39 A3 
  556.526761 2  752             Rx   d 8 2E E7 F7 A9 2A 26 46 C4 
  556.684309 2  752             Rx   d 8 20 1B 41 F1 06 08 88 E9 
  557.014495 2  752             Rx   d 8 21 09 EC 21 F9 77 23 D0 
  557.097055 2  752             Rx   d 8 22 CF 69 E4 BE A6 16 EC 
  557.290265 2  752             Rx   d 8 23 72 CD 54 56 0E 5F 6B 
  558.071537 2  752             Rx   d 8 24 9E 78 F0 C1 60 93 1A 
  558.688942 2  752             Rx   d 8 25 BD 9C 40 E3 4D 48 97 
  558.818307 2  752             Rx   d 8 26 8E E3 5C 97 7C 3B 5B 
  559.319139 2  752             Rx   d 8 27 E5 9F AC 81 12 88 E5 
  559.338524 2  752             Rx   d 8 28 FF F6 C7 74 3D 14 2E 
  559.890057 2  752             Rx   d 8 29 B0 B8 C7 D4 31 63 41 
  560.192938 2  752             Rx   d 8 2A 69 79 26 09 F4 EE BE 
  560.636774 2  752             Rx   d 8 2B C2 5B 64 B4 BB E4 1E 
  561.034970 2  752             Rx   d 8 2C 6C E2 F3 E5 61 2A 3A 
  561.789757 2  752             Rx   d 8 2D 17 4C F7 09 D7 FD 0C 
  562.540849 2  752             Rx   d 8 2E 4D 86 49 7B 77 73 E9 
  562.771299 2  752             Rx   d 8 20 72 8B 4F 11 25 70 11 
  563.690484 2  752             Rx   d 8 21 E0 53 42 FB 22 73 3D 
  564.642946 2  752             Rx   d 8 22 F6 75 F2 05 44 73 0E 
  565.613567 2  752             Rx   d 8 23 6D EE 49 25 2E 91 F7 
  566.444029 2  752             Rx   d 8 24 70 CA 1F F3 BF B5 C4 
  567.040120 2  752             Rx   d 8 25 66 65 E6 99 47 3A 70 
  567.086433 2  652             Tx   d 4 03 76 1D 02
  568.047758 2  752             Rx   d 8 10 F5 36 1E 00 00 00 00
  568.780458 2  652             Tx   d 3 30 00 00
  569.524817 2  752             Rx   d 8 21 19 E6 31 E9 5D A1 10 
  569.633879 2  752             Rx   d 8 22 86 83 AC 09 8F E0 AA 
  570.268378 2  752             Rx   d 8 23 A8 71 09 EE FC 0B D5 
  570.583374 2  752             Rx   d 8 24 31 EC 52 A8 56 C1 6B 
  570.989667 2  752             Rx   d 8 25 B5 B1 36 5C 08 41 A6 
  571.061544 2  752             Rx   d 8 26 49 4F 56 87 7F 1F 6A 
  571.151154 2  752             Rx   d 8 27 9E 2C 72 CF FC 3C D7 
  571.943457 2  752             Rx   d 8 28 CC 8B 00 62 A8 0A CD 
  572.174025 2  752             Rx   d 8 29 C0 7D 85 F6 90 2A 03 
  573.162157 2  752             Rx   d 8 2A 19 AE 6A B1 5D 94 1F 
  573.818054 2  752             Rx   d 8 2B 04 60 2F E0 DC 3C 29 
  574.472002 2  752             Rx   d 8 2C E3 F7 38 32 53 71 D6 
  575.345431 2  752             Rx   d 8 2D 0A D8 C1 9E 66 2A 36 
  576.220274 2  752             Rx   d 8 2E 3B CD E2 0C A5 25 41 
  576.552424 2  752             Rx   d 8 20 E5 DB D0 8C EB 34 3E 
  576.732337 2  752             Rx   d 8 21 7F CE F4 8C F3 F9 E3 
  577.592394 2  752             Rx   d 8 22 35 9A 57 EB 25 67 13 
  578.284948 2  752             Rx   d 8 23 7D 9D D3 91 1B 95 90 
  578.910813 2  752             Rx   d 8 24 88 4D 7A 2F E9 53 6C 
  579.625889 2  752             Rx   d 8 25 10 A2 06 08 66 8D E1 
  580.069555 2  752             Rx   d 8 26 CC F0 13 D6 F9 B8 EB 
  580.648503 2  752             Rx   d 8 27 A2 2D 4F DC D8 C7 92 
  580.948859 2  752             Rx   d 8 28 95 C8 DF DC 72 D7 41 
  581.259543 2  752             Rx   d 8 29 3C 72 1E 04 11 2F 5F 
  581.578801 2  752             Rx   d 8 2A 67 0B 20 71 11 BE BE 
  582.522811 2  752             Rx   d 8 2B 5B C6 F6 AC 63 C3 34 
  583.072461 2  752             Rx   d 8 2C 63 E1 F8 42 C9 EC 36 
  583.628303 2  752             Rx   d 8 2D 09 F0 6E 9A B9 02 28 
  583.938468 2  752             Rx   d 8 2E 9A 32 0D E6 33 AD 12 
  584.023413 2  752             Rx   d 8 20 CB 8D CF DC 12 CA 25 
  584.936883 2  752             Rx   d 8 21 B0 92 88 AC 86 2A C6 
  585.239000 2  752             Rx   d 8 22 5E 23 28 45 E7 B8 26 
  586.035358 2  752             Rx   d 8 23 A9 18 BD 9F D4 D5 93 
  586.269448 2  752             Rx   d 8 24 26 86 39 48 BC DC 1E 
  586.670174 2  752             Rx   d 8 25 84 52 2A 68 F8 A9 18 
  587.582867 2  652             Tx   d 4 03 76 1E 02
  587.925670 2  752             Rx   d 8 10 F5 36 1F 00 00 00 00
  588.431634 2  652             Tx   d 3 30 00 00
  588.572495 2  752             Rx   d 8 21 5D 49 26 D5 12 4E 97 
  588.676174 2  752             Rx   d 8 22 AD 80 90 69 6C 73 E3 
  589.371471 2  752             Rx   d 8 23 03 5F B5 F9 54 52 4F 
  589.472756 2  752             Rx   d 8 24 AC 9C 9F 05 AB 3E EA 
  589.943876 2  752             Rx   d 8 25 3C 17 D1 23 64 D4 09 
  590.617741 2  752             Rx   d 8 26 E7 1A 32 C0 76 37 06 
  590.830309 2  752             Rx   d 8 27 C5 F3 5B 89 0B 40 E2 
  591.057852 2  752             Rx   d 8 28 FC BC 05 70 CA CC 23 
  591.163287 2  752             Rx   d 8 29 6D 02 5F 6C F2 81 2A 
  591.776852 2  752             Rx   d 8 2A F4 EF 24 2D 76 05 C6 
  591.815951 2  752             Rx   d 8 2B 50 58 93 EC 60 21 9B 
  592.348240 2  752             Rx   d 8 2C 27 C3 BE 11 F0 81 BC 
  592.480708 2  752             Rx   d 8 2D AD F9 60 F0 4C E1 8F 
  593.392921 2  752             Rx   d 8 2E DB 6F B0 6E 05 0C E2 
  594.275474 2  752             Rx   d 8 20 16 C5 B4 6F 46 B2 6D 
  594.387821 2  752             Rx   d 8 21 19 83 14 77 70 27 92 
  594.978558 2  752             Rx   d 8 22 22 1E 5E 4D 07 EF 9F 
  595.546644 2  752             Rx   d 8 23 7A 10 73 C8 44 9D E0 
  596.030537 2  752             Rx   d 8 24 3B E5 6A C1 3B F7 9D 
  596.956495 2  752             Rx   d 8 25 98 B6 30 F2 83 69 D3 
  597.390295 2  752             Rx   d 8 26 F8 D5 89 68 49 12 D3 
  598.146540 2  752             Rx   d 8 27 BE 24 0B 6D CA 70 E5 
  598.932805 2  752             Rx   d 8 28 9E C1 F0 9F 61 F6 01 
  599.816427 2  752             Rx   d 8 29 F2 C2 72 C1 08 3B 9D 
  600.363884 2  752             Rx   d 8 2A 3F 0B 39 29 A5 3E 6B 
  600.521493 2  752             Rx   d 8 2B 82 B7 E4 6B 59 96 51 
  600.580466 2  752             Rx   d 8 2C 7A 28 32 D1 67 E4 0C 
  601.285512 2  752             Rx   d 8 2D D2 7D 3F 4B 25 7C 09 
  601.339412 2  752             Rx   d 8 2E 4A E9 F8 75 C3 0D 39 
  602.325461 2  752             Rx   d 8 20 74 A8 F1 38 9E F8 B6 
  602.594016 2  752             Rx   d 8 21 52 58 BD 64 64 F5 FE 
  603.395006 2  752             Rx   d 8 22 9F 57 4C 1A 9C B9 5C 
  604.311334 2  752             Rx   d 8 23 12 38 01 9F FD 51 B6 
  605.010236 2  752             Rx   d 8 24 E8 0D E9 36 AE EE E0 
  605.886018 2  752             Rx   d 8 25 51 76 35 2F 0E 6F 0C 
  606.579054 2  652             Tx   d 4 03 76 1F 02
  606.675907 2  752             Rx   d 8 10 F5 36 20 00 00 00 00
  606.837700 2  652             Tx   d 3 30 00 00
  607.440896 2  752             Rx   d 8 21 8D DC B8 B2 47 89 6D 
  607.455830 2  752             Rx   d 8 22 61 71 E8 4A C8 7C B8 
  608.324225 2  752             Rx   d 8 23 41 37 32 D5 52 BF 49 
  609.130078 2  752             Rx   d 8 24 17 74 F1 D4 70 B6 D0 
  609.778338 2  752             Rx   d 8 25 07 4E 0E 21 24 8D 42 
  610.257750 2  752             Rx   d 8 26 26 10 F2 88 CE 1F 47 
  610.497530 2  752             Rx   d 8 27 BB 67 62 88 D8 B9 DD 
  610.628034 2  752             Rx   d 8 28 FD 16 54 E7 72 13 D0 
  611.326841 2  752             Rx   d 8 29 64 7B 68 39 67 9C 23 
  612.227625 2  752             Rx   d 8 2A C8 F5 EC F4 44 4A D2 
  613.027876 2  752             Rx   d 8 2B 5B 5F 6A FD 47 A3 8B 
  613.149911 2  752             Rx   d 8 2C B6 22 1D 83 CF C9 7B 
  613.867196 2  752             Rx   d 8 2D 98 88 46 9F 87 1F CE 
  614.417224 2  752             Rx   d 8 2E 0F 0E 61 05 4F BC A5 
  615.299428 2  752             Rx   d 8 20 97 43 A5 8B D2 34 4B 
  616.113163 2  752             Rx   d 8 21 8D 71 D2 74 3F 85 BC 
  616.599540 2  752             Rx   d 8 22 1E 2F 7A 0B 43 D9 4D 
  617.341978 2  752             Rx   d 8 23 B5 B3 45 A5 91 DF DE 
  618.334882 2  752             Rx   d 8 24 C5 74 9D ED 29 B9 6F 
  618.893834 2  752             Rx   d 8 25 A4 22 93 61 E5 22 47 
  619.055202 2  752             Rx   d 8 26 8A C4 5A 01 E4 26 9B 
  619.873532 2  752             Rx   d 8 27 51 1D C4 E2 49 07 F5 
  620.153226 2  752             Rx   d 8 28 08 F6 89 0D C9 2E C6 
  620.995983 2  752             Rx   d 8 29 80 7F 22 44 78 53 C5 
  621.340056 2  752             Rx   d 8 2A BA FD 84 22 4C 4E C2 
  622.097370 2  752             Rx   d 8 2B 21 94 43 DD A0 35 84 
  622.198821 2  752             Rx   d 8 2C 7D 2C 54 00 9A BF 1D 
  622.344890 2  752             Rx   d 8 2D 12 87 E3 27 F5 E4 68 
  623.343250 2  752             Rx   d 8 2E AC 55 A1 57 3D F3 10 
  624.007974 2  752             Rx   d 8 20 A0 05 F8 D2 29 94 31 
  624.063627 2  752             Rx   d 8 21 4C 54 72 89 93 A4 DD 
  624.071868 2  752             Rx   d 8 22 94 B5 C3 41 FF 6E 10 
  624.903234 2  752             Rx   d 8 23 05 C5 4A 84 1C 0C 10 
  625.183818 2  752             Rx   d 8 24 9E CA 12 E9 EE B8 3F 
  625.854391 2  752             Rx   d 8 25 FC F9 95 23 D3 92 A2 
  625.996736 2  652             Tx   d 4 03 76 20 02
  626.350414 2  752             Rx   d 8 10 F5 36 21 00 00 00 00
  627.316798 2  652             Tx   d 3 30 00 00
  627.373445 2  752             Rx   d 8 21 82 7F 74 AD D9 BF E0 
  627.640479 2  752             Rx   d 8 22 CF F1 C7 9A 3E 05 65 
  627.786574 2  752             Rx   d 8 23 68 EE 6C CA C4 D5 64 
  628.324499 2  752             Rx   d 8 24 BE 22 30 27 31 D0 33 
  628.487524 2  752             Rx   d 8 25 92 82 56 15 EF F2 D7 
  629.112058 2  752             Rx   d 8 26 E8 C4 3E 7A BC 57 39 
  629.178602 2  752             Rx   d 8 27 3E 38 44 29 39 6F 44 
  629.767001 2  752             Rx   d 8 28 D7 8B 01 1C 99 F2 01 
  630.632685 2  752             Rx   d 8 29 F8 0E F2 3E 5B 67 5A 
  631.267642 2  752             Rx   d 8 2A 2E F1 92 87 B1 BF DE 
  631.683359 2  752             Rx   d 8 2B DB 10 A1 A9 60 F8 7C 
  632.576450 2  752             Rx   d 8 2C DD 58 1C E9 5E 45 BE 
  633.356848 2  752             Rx   d 8 2D F0 32 90 5C 4C 86 3A 
  634.049106 2  752             Rx   d 8 2E 30 9F 71 AB 59 13 64 
  634.225741 2  752             Rx   d 8 20 63 D6 00 B5 62 CA EC 
  634.714366 2  752             Rx   d 8 21 80 01 E2 8C 1F 94 6D 
  635.353243 2  752             Rx   d 8 22 55 0A 29 BB 2D 05 E2 
  635.530325 2  752             Rx   d 8 23 8C 41 E4 D3 7E 52 AE 
  635.965402 2  752             Rx   d 8 24 EA 0F B9 7C D3 F0 19 
  636.737792 2  752             Rx   d 8 25 AE 2A A5 71 9F 94 69 
  637.217703 2  752             Rx   d 8 26 B2 57 34 30 A5 8C 9B 
  637.794796 2  752             Rx   d 8 27 8A 9F B1 EA 06 7C 82 
  638.449827 2  752             Rx   d 8 28 E4 BD C5 76 2D C5 B9 
  639.235604 2  752             Rx   d 8 29 F9 D9 F2 BB 56 01 33 
  639.956649 2  752             Rx   d 8 2A CC D6 E5 4B 39 D1 5C 
  640.666065 2  752             Rx   d 8 2B E2 3D F1 60 CC A5 06 
  641.261904 2  752             Rx   d 8 2C 00 AD 29 80 39 C5 58 
  641.993642 2  752             Rx   d 8 2D CA C7 36 CC 96 1F 41 
  642.245436 2  752             Rx   d 8 2E D4 28 80 24 34 E4 A5 
  642.493688 2  752             Rx   d 8 20 74 83 44 B2 C8 23 C4 
  642.856583 2  752             Rx   d 8 21 AF D3 B4 16 80 FF 2C 
  643.773147 2  752             Rx   d 8 22 2E A9 6D 5F B0 D2 7F 
  644.067221 2  752             Rx   d 8 23 D1 CF 99 59 1B 63 86 
  644.678453 2  752             Rx   d 8 24 F6 EC F5 2E A9 FC 94 
  645.317000 2  752             Rx   d 8 25 A7 19 26 34 25 31 DD 
  646.282584 2  652             Tx   d 4 03 76 21 02
  646.793179 2  752             Rx   d 8 10 F5 36 22 00 00 00 00
  647.442298 2  652             Tx   d 3 30 00 00
  647.762829 2  752             Rx   d 8 21 28 1C B9 BF 5C 6E DC 
  648.458135 2  752             Rx   d 8 22 58 D6 D9 90 23 FC 45 
  648.936146 2  752             Rx   d 8 23 B1 47 CE 31 CF 0B B3 
  649.094523 2  752             Rx   d 8 24 02 74 F6 A3 0C 36 30 
  649.379164 2  752             Rx   d 8 25 78 1E B8 5D 63 80 17 
  649.413268 2  752             Rx   d 8 26 8F 8C 4E AD 9C 7F F4 
  649.837889 2  752             Rx   d 8 27 3B A0 83 DE 06 6E 50 
  650.065606 2  752             Rx   d 8 28 DB C1 CC 75 FB 9C 4F 
  650.389056 2  752             Rx   d 8 29 6B 99 7B 74 BC D9 D5 
  651.073980 2  752             Rx   d 8 2A 1C AB AD 90 20 D6 36 
  651.717499 2  752             Rx   d 8 2B F1 50 1C 4A ED DE 37 
  651.930375 2  752             Rx   d 8 2C E5 E3 13 5A 0C 74 67 
  652.767375 2  752             Rx   d 8 2D E7 19 0E 4F 4B 0A 26 
  653.154552 2  752             Rx   d 8 2E 6A F8 BC B9 BF CA BC 
  654.021628 2  752             Rx   d 8 20 E1 3D A8 B0 E1 F4 C6 
  654.491889 2  752             Rx   d 8 21 F1 3F EF 7B 21 B0 99 
  654.524482 2  752             Rx   d 8 22 99 FF 6D D3 DF 42 1D 
  654.815478 2  752             Rx   d 8 23 AA E1 65 B0 46 30 61 
  654.956299 2  752             Rx   d 8 24 37 69 66 E4 7C 79 DB 
  655.633821 2  752             Rx   d 8 25 BA A4 B7 AC FE 08 70 
  656.444628 2  752             Rx   d 8 26 FB 05 00 52 05 6C D8 
  656.972416 2  752             Rx   d 8 27 7E DA EC F1 D8 B1 F8 
  657.279157 2  752             Rx   d 8 28 56 3A 1D F8 F6 E2 24 
  657.904468 2  752             Rx   d 8 29 AB CE 4A 97 9E 56 F0 
  658.197335 2  752             Rx   d 8 2A B1 5B 07 BF 51 D0 5D 
  658.684629 2  752             Rx   d 8 2B 45 45 62 4F D9 F3 A8 
  658.826598 2  752             Rx   d 8 2C D9 95 10 6F DF 43 FB 
  659.759471 2  752             Rx   d 8 2D 7B 31 D1 71 45 BE EA 
  659.802526 2  752             Rx   d 8 2E 4C 0C 97 80 57 B8 1B 
  660.626312 2  752             Rx   d 8 20 C3 25 1B CE C3 F9 52 
  660.813289 2  752             Rx   d 8 21 17 E1 F7 FD E0 85 D0 
  660.860410 2  752             Rx   d 8 22 06 E3 7B F1 4B 2C 46 
  660.983397 2  752             Rx   d 8 23 90 8F BD D1 9E 5A 40 
  661.341655 2  752             Rx   d 8 24 CC 12 CC 61 7C C5 28 
  662.207406 2  752             Rx   d 8 25 21 AE 34 F9 88 EB 9D 
  662.824850 2  652             Tx   d 4 03 76 22 02
  663.680730 2  752             Rx   d 8 10 F5 36 23 00 00 00 00
  664.638299 2  652             Tx   d 3 30 00 00
  665.152681 2  752             Rx   d 8 21 F4 85 E5 F8 97 AE 31 
  665.201563 2  752             Rx   d 8 22 6D 8B 5B 12 A6 AB E0 
  665.461841 2  752             Rx   d 8 23 42 FD 4D 7D 74 40 48 
  665.760076 2  752             Rx   d 8 24 17 6E 2A F2 8D A7 C0 
  666.329759 2  752             Rx   d 8 25 AE 49 61 2B 27 5A 52 
  666.465605 2  752             Rx   d 8 26 86 87 77 ED D4 80 E0 
  666.597864 2  752             Rx   d 8 27 82 8C EB 87 C8 6B E8 
  666.656714 2  752             Rx   d 8 28 A6 91 24 BD 16 50 4B 
  667.165106 2  752             Rx   d 8 29 CE 47 EC AA 1B A3 AF 
  667.241581 2  752             Rx   d 8 2A 38 1A 8B D6 4A 49 33 
  667.287968 2  752             Rx   d 8 2B 9E B5 19 29 2C 4A 1C 
  667.304851 2  752             Rx   d 8 2C B3 5B FE BE 5C D5 7C 
  668.254532 2  752             Rx   d 8 2D 28 74 D6 53 C6 81 43 
  668.634295 2  752             Rx   d 8 2E 96 E6 9A 91 32 DA 0F 
  669.117043 2  752             Rx   d 8 20 76 B9 D9 4C D0 29 AF 
  669.764515 2  752             Rx   d 8 21 7C 96 00 B9 38 E8 0D 
  669.823061 2  752             Rx   d 8 22 71 71 80 84 64 2D 7B 
  670.001368 2  752             Rx   d 8 23 EB 65 D2 8E 75 42 4B 
  670.941370 2  752             Rx   d 8 24 D6 3E A1 17 83 F7 30 
  671.117506 2  752             Rx   d 8 25 A0 C8 7B F8 8A 36 A2 
  671.291549 2  752             Rx   d 8 26 D6 F4 C8 CC 9A 3B 9A 
  672.195265 2  752             Rx   d 8 27 4A DD 57 BF 5E 96 73 
  672.442646 2  752             Rx   d 8 28 1B F6 0E 1E 49 52 09 
  673.390703 2  752             Rx   d 8 29 0F 81 7D 41 84 41 0E 
  673.538569 2  752             Rx   d 8 2A F2 5F C3 78 B5 5E 00 
  674.048413 2  752             Rx   d 8 2B BB 15 D1 FF C9 55 25 
  674.437939 2  752             Rx   d 8 2C 32 0E 8C AE 9A E3 AE 
  674.723841 2  752             Rx   d 8 2D C2 51 86 17 3A EA 10 
  674.855169 2  752             Rx   d 8 2E 3D 18 A1 5C FB B5 32 
  674.969518 2  752             Rx   d 8 20 83 86 09 63 D3 FA 97 
  675.407502 2  752             Rx   d 8 21 59 41 87 9C DC EC 3D 
  676.282529 2  752             Rx   d 8 22 62 17 71 F0 2F A9 A9 
  676.988875 2  752             Rx   d 8 23 BF 7C 8F 9F 99 69 54 
  677.670945 2  752             Rx   d 8 24 CC 2E 59 E9 7C 9B DF 
  678.449380 2  752             Rx   d 8 25 7A CB F4 4D 40 03 EF 
  679.447812 2  652             Tx   d 4 03 76 23 02
  680.349515 2  752             Rx   d 8 10 F5 36 24 00 00 00 00
  680.564895 2  652             Tx   d 3 30 00 00
  681.205568 2  752             Rx   d 8 21 4B E8 8E 45 4E 2F 5B 
  682.070526 2  752             Rx   d 8 22 A7 E1 95 99 41 51 B2 
  682.323131 2  752             Rx   d 8 23 BE 34 04 B8 59 1B DA 
  683.145256 2  752             Rx   d 8 24 63 F6 8C C0 62 3A 09 
  683.186235 2  752             Rx   d 8 25 CD 6D 2D E7 A1 97 2A 
  683.570618 2  752             Rx   d 8 26 B7 D8 FC B4 06 D1 12 
  684.000053 2  752             Rx   d 8 27 B4 61 4A 68 D9 35 AA 
  684.641612 2  752             Rx   d 8 28 F7 65 FF F2 92 44 47 
  685.458093 2  752             Rx   d 8 29 41 F9 69 DA 1D 84 A4 
  686.307887 2  752             Rx   d 8 2A AE 9D 0F 1D D8 F4 DE 
  686.350346 2  752             Rx   d 8 2B 8C 0A C8 80 B4 CA E0 
  686.631239 2  752             Rx   d 8 2C 27 41 73 FB 5F E1 5A 
  686.734323 2  752             Rx   d 8 2D 16 1F 01 86 79 21 A5 
  686.900117 2  752             Rx   d 8 2E 71 B9 C9 56 B3 58 39 
  687.113296 2  752             Rx   d 8 20 5F 9E 5D 56 00 F9 2C 
  687.573937 2  752             Rx   d 8 21 70 38 62 32 DE 71 8B 
  688.057505 2  752             Rx   d 8 22 21 47 32 A0 9B 54 FA 
  688.108624 2  752             Rx   d 8 23 91 21 8E 1D F1 F2 E7 
  688.829672 2  752             Rx   d 8 24 3A ED 11 77 3B CB 55 
  689.780953 2  752             Rx   d 8 25 CD 7E 6E 1F 90 00 ED 
  690.607762 2  752             Rx   d 8 26 9F 87 E8 12 3C 69 B6 
  691.180611 2  752             Rx   d 8 27 59 12 46 1C EC 98 D5 
  691.506074 2  752             Rx   d 8 28 8E 5D BB EB 16 29 04 
  691.526398 2  752             Rx   d 8 29 18 4F 29 2E 8F 6C D4 
  691.655521 2  752             Rx   d 8 2A C2 27 D0 31 B6 D5 A7 
  692.456537 2  752             Rx   d 8 2B 4D 16 E0 47 5E 74 76 
  693.214124 2  752             Rx   d 8 2C 1D 35 95 D9 D3 C7 A2 
  693.726477 2  752             Rx   d 8 2D B9 F6 A2 DB E7 13 AA 
  693.826308 2  752             Rx   d 8 2E 0F DA 57 37 09 AD B4 
  693.925929 2  752             Rx   d 8 20 08 14 CB 55 D8 3A 87 
  694.208672 2  752             Rx   d 8 21 1E C1 4D DA 87 C0 8F 
  694.932726 2  752             Rx   d 8 22 DA CC CA 95 A0 D1 AB 
  695.696224 2  752             Rx   d 8 23 EC 9B 60 E3 D0 A8 40 
  695.793304 2  752             Rx   d 8 24 09 AC 29 74 1B F2 66 
  696.470226 2  752             Rx   d 8 25 61 0A 8F E0 F4 6A C7 
  696.691004 2  652             Tx   d 4 03 76 24 02
  697.359853 2  752             Rx   d 8 10 F5 36 25 00 00 00 00
  697.631099 2  652             Tx   d 3 30 00 00
  698.324560 2  752             Rx   d 8 21 78 B2 C9 01 58 23 7E 
  699.300169 2  752             Rx   d 8 22 D3 03 8B 2B BA 71 22 
  700.272472 2  752             Rx   d 8 23 85 19 0E 4A 70 7B BB 
  700.546831 2  752             Rx   d 8 24 CB B6 08 99 F2 06 DB 
  700.799104 2  752             Rx   d 8 25 FD 46 E5 F7 D3 F9 F1 
  701.296531 2  752             Rx   d 8 26 4A 25 77 0B 66 4F 2F 
  701.486109 2  752             Rx   d 8 27 CC 0D 22 9E C0 CD 30 
  701.960284 2  752             Rx   d 8 28 32 94 04 67 DA BE 05 
  702.143693 2  752             Rx   d 8 29 A9 DD D1 A2 CB 7D 33 
  702.458841 2  752             Rx   d 8 2A 92 12 AA 4E 10 84 EA 
  703.284291 2  752             Rx   d 8 2B 86 7F 95 8C 90 04 26 
  703.835204 2  752             Rx   d 8 2C 70 67 7F EE 88 57 B3 
  704.116988 2  752             Rx   d 8 2D 98 C5 FB F6 63 93 C6 
  704.632008 2  752             Rx   d 8 2E 09 BF 5F 2F 58 BA 09 
  704.886942 2  752             Rx   d 8 20 43 84 CF C2 17 0B F7 
  705.212496 2  752             Rx   d 8 21 5B BE C0 1D 56 7E 2E 
  705.277717 2  752             Rx   d 8 22 49 5B 3E 57 D8 7C 28 
  705.746391 2  752             Rx   d 8 23 02 49 66 01 CB E6 AC 
  706.699171 2  752             Rx   d 8 24 D2 ED 73 6E 1F 43 AB 
  707.632379 2  752             Rx   d 8 25 B5 6E BC 9C 3E 37 0D 
  707.899499 2  752             Rx   d 8 26 6C 7A 8C 92 84 4F 93 
  708.323864 2  752             Rx   d 8 27 3E 4A 6A 3D 6F B1 A4 
  708.726746 2  752             Rx   d 8 28 3F 65 9B 9D 59 3E EB 
  709.248127 2  752             Rx   d 8 29 6F 66 CF 86 74 29 FB 
  709.548660 2  752             Rx   d 8 2A 1D 7F 48 F6 D2 6A 79 
  710.385204 2  752             Rx   d 8 2B 56 9E 07 5C B2 04 79 
  710.567921 2  752             Rx   d 8 2C C7 EA 69 E9 E6 01 D6 
  710.663813 2  752             Rx   d 8 2D 91 1F BC B1 82 1F E7 
  711.177680 2  752             Rx   d 8 2E E8 CC A9 20 80 20 1D 
  711.556051 2  752             Rx   d 8 20 EE BE 74 CD BA 5C BE 
  712.296704 2  752             Rx   d 8 21 79 33 21 0F E5 D6 37 
  713.115563 2  752             Rx   d 8 22 D5 6A 72 CA 94 EE 56 
  713.747703 2  752             Rx   d 8 23 2D 11 BB D5 D6 A8 56 
  714.244340 2  752             Rx   d 8 24 15 42 EB 13 53 23 D7 
  714.468138 2  752             Rx   d 8 25 79 2C D1 6E 8C 60 9B 
  714.701114 2  652             Tx   d 4 03 76 25 02
  715.494884 2  752             Rx   d 8 10 F5 36 26 00 00 00 00
  716.105428 2  652             Tx   d 3 30 00 00
  716.121129 2  752             Rx   d 8 21 30 27 B1 F0 22 B3 F1 
  716.325954 2  752             Rx   d 8 22 F1 8F AA 4B D0 8B 8D 
  716.572979 2  752             Rx   d 8 23 EB EF E8 E1 C6 82 23 
  716.870852 2  752             Rx   d 8 24 AF 68 C5 23 96 75 E8 
  717.233797 2  752             Rx   d 8 25 C1 D5 79 2E 0A 22 C4 
  717.373882 2  752             Rx   d 8 26 80 CD 04 C5 24 B9 32 
  717.798766 2  752             Rx   d 8 27 5F 12 A6 AF 9F F5 CC 
  717.993308 2  752             Rx   d 8 28 53 57 83 FA A3 B9 F9 
  718.945506 2  752             Rx   d 8 29 08 94 18 74 3E A1 8C 
  719.479604 2  752             Rx   d 8 2A A0 C6 15 EE 65 83 16 
  719.583449 2  752             Rx   d 8 2B 10 17 DC 1D C3 CE BA 
  720.204176 2  752             Rx   d 8 2C CC 9C D8 6F 40 1A 33 
  720.612621 2  752             Rx   d 8 2D 20 D7 D4 3E 37 27 85 
  721.507178 2  752             Rx   d 8 2E 15 20 89 82 76 1A CB 
  721.763223 2  752             Rx   d 8 20 10 E6 F2 F3 77 20 0D 
  722.140073 2  752             Rx   d 8 21 35 94 AA 7C 37 87 40 
  722.650338 2  752             Rx   d 8 22 34 6C 6E 4F 00 F7 CE 
  723.046261 2  752             Rx   d 8 23 F0 6F CA 61 56 17 ED 
  723.822802 2  752             Rx   d 8 24 B5 CF 31 F8 46 E6 14 
  724.472929 2  752             Rx   d 8 25 BA 11 8D B6 67 F4 78 
  724.729984 2  752             Rx   d 8 26 A6 AE 0B 44 ED 5C 0E 
  725.479113 2  752             Rx   d 8 27 EB AA C6 C2 43 12 CE 
  726.336059 2  752             Rx   d 8 28 F5 AC 22 4B 44 04 DC 
  726.785911 2  752             Rx   d 8 29 0C DA 76 7D 69 1E 02 
  727.166114 2  752             Rx   d 8 2A EA 18 60 92 7D AF A2 
  727.880396 2  752             Rx   d 8 2B D0 26 A5 91 A6 38 10 
  728.050467 2  752             Rx   d 8 2C A8 B0 D3 B8 5F 10 77 
  729.013227 2  752             Rx   d 8 2D EB D7 90 D7 9C 31 52 
  729.978084 2  752             Rx   d 8 2E E6 99 91 B3 E1 08 97 
  730.344778 2  752             Rx   d 8 20 DB DD 96 07 24 4F 81 
  730.654060 2  752             Rx   d 8 21 70 9F 58 EC 69 A7 0E 
  730.718583 2  752             Rx   d 8 22 AF 11 23 22 6C 2D 9F 
  730.917637 2  752             Rx   d 8 23 20 C0 11 6D C2 73 B5 
  731.452843 2  752             Rx   d 8 24 97 2E 30 EC B1 A9 9A 
  731.714986 2  752             Rx   d 8 25 7C 1A 18 B7 A3 3E D6 
  732.641349 2  652             Tx   d 4 03 76 26 02
  733.030843 2  752             Rx   d 8 10 F5 36 27 00 00 00 00
  733.113435 2  652             Tx   d 3 30 00 00
  733.466932 2  752             Rx   d 8 21 38 FA 79 6A AE 00 E4 
  734.048070 2  752             Rx   d 8 22 E8 C2 01 DD 12 2A E7 
  734.468691 2  752             Rx   d 8 23 63 83 2C 0D B2 29 17 
  735.046379 2  752             Rx   d 8 24 08 5B 71 40 28 55 B2 
  735.893633 2  752             Rx   d 8 25 27 A4 DB F3 1F 14 53 
  736.687594 2  752             Rx   d 8 26 A5 E9 A1 A2 13 75 20 
  737.552845 2  752             Rx   d 8 27 09 41 56 7D 69 1A 9E 
  738.538264 2  752             Rx   d 8 28 79 5D AB 65 CE C5 24 
  738.704809 2  752             Rx   d 8 29 3D 86 8E A5 17 62 B2 
  738.726678 2  752             Rx   d 8 2A 8D 68 B6 95 45 0E 6F 
  739.555618 2  752             Rx   d 8 2B 5A 18 76 AE BE 19 BB 
  740.087611 2  752             Rx   d 8 2C BD 99 7B 33 76 1B EC 
  741.038879 2  752             Rx   d 8 2D 47 B5 FC 1A 3D 0F 43 
  741.043268 2  752             Rx   d 8 2E 20 85 B7 E5 FC 73 8F 
  741.954580 2  752             Rx   d 8 20 45 32 54 F3 B0 83 9C 
  742.649643 2  752             Rx   d 8 21 0A FC DE 10 CF 1C 9E 
  742.861010 2  752             Rx   d 8 22 B4 9F 29 C8 A7 7F E1 
  743.819717 2  752             Rx   d 8 23 82 52 38 45 BA 54 94 
  744.157496 2  752             Rx   d 8 24 75 0C 4F 97 03 8F 80 
  744.422529 2  752             Rx   d 8 25 48 94 8F DC C2 BE 3F 
  744.984512 2  752             Rx   d 8 26 9A 40 BC 40 75 FF DE 
  745.005991 2  752             Rx   d 8 27 04 E1 4E 2E C8 8D E2 
  745.973048 2  752             Rx   d 8 28 FF 97 3F B0 B2 88 5D 
  746.134786 2  752             Rx   d 8 29 26 C5 0A 84 79 C2 16 
  746.914818 2  752             Rx   d 8 2A 48 37 B2 A2 BB 94 5E 
  747.395662 2  752             Rx   d 8 2B CD 79 F7 C7 C2 B0 B8 
  748.257715 2  752             Rx   d 8 2C A0 BF 78 2F 55 02 52 
  748.927347 2  752             Rx   d 8 2D 58 F7 2D 4B 47 8E 58 
  749.659416 2  752             Rx   d 8 2E 7E D5 68 1C A4 3B 04 
  749.732656 2  752             Rx   d 8 20 50 67 E7 72 07 55 FA 
  750.476474 2  752             Rx   d 8 21 50 5C A6 F7 D1 6F 50 
  750.690840 2  752             Rx   d 8 22 2B 54 B7 0D C3 4D A9 
  750.789098 2  752             Rx   d 8 23 1E 4A B9 4B B4 94 88 
  751.346932 2  752             Rx   d 8 24 E2 F7 9B 62 11 D2 81 
  751.376070 2  752             Rx   d 8 25 F4 A8 83 9A 90 69 E3 
  752.155406 2  652             Tx   d 4 03 76 27 02
  752.711561 2  752             Rx   d 8 10 F5 36 28 00 00 00 00
  753.180584 2  652             Tx   d 3 30 00 00
  754.108608 2  752             Rx   d 8 21 C8 9E E5 DC 0A 1E 9E 
  754.780933 2  752             Rx   d 8 22 B4 AA D5 10 49 5F A4 
  755.714084 2  752             Rx   d 8 23 1C 20 DA 97 55 E8 AB 
  755.742612 2  752             Rx   d 8 24 95 84 36 B9 E4 25 EE 
  756.391388 2  752             Rx   d 8 25 34 D1 A3 CE 75 0D 03 
  756.928294 2  752             Rx   d 8 26 0B 50 E3 94 3B F5 FF 
  757.462714 2  752             Rx   d 8 27 31 CF 8D B1 26 83 2B 
  757.738756 2  752             Rx   d 8 28 AF A5 F8 D1 FA E3 A3 
  758.504576 2  752             Rx   d 8 29 88 4B E0 3B 69 77 55 
  759.065645 2  752             Rx   d 8 2A 6C A7 43 AB 4C 24 69 
  759.214493 2  752             Rx   d 8 2B F7 7E 2C 6B 9A 6C 16 
  759.455780 2  752             Rx   d 8 2C 20 37 8A 74 C3 F5 A8 
  760.200352 2  752             Rx   d 8 2D 8B 92 7F F7 59 2D D8 
  760.935078 2  752             Rx   d 8 2E A8 40 60 63 3F 6F 38 
  761.117925 2  752             Rx   d 8 20 3C 02 7F 54 C1 33 CA 
  761.824385 2  752             Rx   d 8 21 69 F0 BA 60 F9 DE 54 
  762.761451 2  752             Rx   d 8 22 48 DE 87 C9 7E 8B 80 
  763.099055 2  752             Rx   d 8 23 08 74 EE D0 6D 10 8A 
  763.721202 2  752             Rx   d 8 24 B4 80 7A 2F 13 41 BF 
  764.279841 2  752             Rx   d 8 25 A3 25 21 3B 01 07 91 
  765.001019 2  752             Rx   d 8 26 86 06 8F 92 B7 99 49 
  765.017558 2  752             Rx   d 8 27 74 2E 18 B3 F9 EF 35 
  765.396498 2  752             Rx   d 8 28 97 00 D3 17 9A C5 A0 
  765.804163 2  752             Rx   d 8 29 70 53 90 34 03 D3 C3 
  766.467194 2  752             Rx   d 8 2A 4E EE AB 40 46 B4 59 
  767.456422 2  752             Rx   d 8 2B BC 46 49 07 5C C8 7D 
  767.930522 2  752             Rx   d 8 2C BE C6 75 96 C4 9E F0 
  768.406768 2  752             Rx   d 8 2D EB AD D6 73 66 B6 DB 
  769.198259 2  752             Rx   d 8 2E 67 6A 90 92 1C 85 62 
  770.099138 2  752             Rx   d 8 20 1D A8 B2 02 DC D5 D2 
  770.599972 2  752             Rx   d 8 21 7B 1D 0C 2A EF 45 5B 
  771.270712 2  752             Rx   d 8 22 6B 19 E5 85 D5 2B 2B 
  771.771992 2  752             Rx   d 8 23 45 D9 D5 A3 F8 7D 78 
  771.866670 2  752             Rx   d 8 24 D2 AB F2 33 A8 D4 17 
  771.981603 2  752             Rx   d 8 25 D1 C2 BB AF B3 C2 78 
  772.248693 2  652             Tx   d 4 03 76 28 02
  772.305882 2  752             Rx   d 8 10 F5 36 29 00 00 00 00
